!Agilent Technologies,E8803A,US42160105,A.06.04.32
!Agilent E8803A: A.06.04.32
!Date: Friday, January 05, 2024 13:15:07
!Correction: S11(Full 2 Port(1,2)) S21(Full 2 Port(1,2)) S12(Full 2 Port(1,2)) S22(Full 2 Port(1,2)) 
!S2P File: Measurements: S11, S21, S12, S22:
# Hz S  dB   R 50
90297000 -5.020312e+001 -1.629795e+001 -8.452502e-002 -1.915995e+001 -8.506865e-002 -1.915714e+001 -5.322887e+001 -2.114119e+001
91689141.09375 -4.997189e+001 -1.957160e+001 -8.255209e-002 -1.950381e+001 -7.976117e-002 -1.943390e+001 -5.280205e+001 -1.872374e+001
93081282.1875 -5.001953e+001 -1.931863e+001 -7.713502e-002 -1.978817e+001 -8.095449e-002 -1.971681e+001 -5.284695e+001 -1.903319e+001
94473423.28125 -4.990519e+001 -1.951679e+001 -8.031646e-002 -2.005178e+001 -8.740386e-002 -2.001655e+001 -5.293477e+001 -2.193137e+001
95865564.375 -4.995027e+001 -2.092665e+001 -8.627899e-002 -2.038832e+001 -8.570479e-002 -2.028584e+001 -5.342024e+001 -2.265548e+001
97257705.46875 -4.978741e+001 -2.195367e+001 -8.144923e-002 -2.068886e+001 -8.843669e-002 -2.061035e+001 -5.304359e+001 -2.572687e+001
98649846.5625 -4.985775e+001 -2.302627e+001 -8.158277e-002 -2.095487e+001 -9.013014e-002 -2.083055e+001 -5.331962e+001 -2.416738e+001
100041987.65625 -5.007034e+001 -2.286484e+001 -8.652654e-002 -2.123997e+001 -8.955514e-002 -2.120950e+001 -5.277317e+001 -2.661782e+001
101434128.75 -4.989887e+001 -2.334978e+001 -8.463576e-002 -2.153516e+001 -8.770372e-002 -2.141997e+001 -5.339567e+001 -2.412116e+001
102826269.84375 -4.988636e+001 -2.333821e+001 -8.822557e-002 -2.187290e+001 -8.397429e-002 -2.175861e+001 -5.307844e+001 -2.564299e+001
104218410.9375 -4.993604e+001 -2.507686e+001 -8.595019e-002 -2.207946e+001 -8.930295e-002 -2.205574e+001 -5.310040e+001 -2.575330e+001
105610552.03125 -4.954638e+001 -2.605846e+001 -8.906373e-002 -2.239948e+001 -9.399404e-002 -2.231171e+001 -5.372556e+001 -2.359973e+001
107002693.125 -4.973267e+001 -2.553986e+001 -8.228249e-002 -2.265888e+001 -8.740931e-002 -2.261497e+001 -5.311386e+001 -2.733177e+001
108394834.21875 -4.968395e+001 -2.552065e+001 -9.679348e-002 -2.299125e+001 -9.285076e-002 -2.292004e+001 -5.394034e+001 -2.916114e+001
109786975.3125 -4.961266e+001 -2.632404e+001 -8.841603e-002 -2.325136e+001 -9.865330e-002 -2.314186e+001 -5.371749e+001 -2.679776e+001
111179116.40625 -4.953310e+001 -2.807893e+001 -9.171986e-002 -2.355510e+001 -9.589565e-002 -2.349174e+001 -5.397600e+001 -2.849593e+001
112571257.5 -4.976907e+001 -2.896957e+001 -9.514827e-002 -2.382562e+001 -9.337808e-002 -2.379554e+001 -5.380433e+001 -2.922034e+001
113963398.59375 -4.960951e+001 -2.847344e+001 -9.695324e-002 -2.412006e+001 -9.878865e-002 -2.409684e+001 -5.375422e+001 -2.832709e+001
115355539.6875 -4.951036e+001 -2.974026e+001 -9.852858e-002 -2.443138e+001 -9.487645e-002 -2.438476e+001 -5.389450e+001 -3.076775e+001
116747680.78125 -4.936269e+001 -2.785767e+001 -9.132767e-002 -2.470734e+001 -1.041316e-001 -2.465458e+001 -5.401918e+001 -3.238629e+001
118139821.875 -4.937089e+001 -2.997484e+001 -9.192301e-002 -2.502596e+001 -1.008931e-001 -2.495761e+001 -5.397933e+001 -3.190667e+001
119531962.96875 -4.917120e+001 -2.946457e+001 -1.004811e-001 -2.530378e+001 -1.039152e-001 -2.525289e+001 -5.414376e+001 -2.998200e+001
120924104.0625 -4.901303e+001 -3.032189e+001 -1.003400e-001 -2.555747e+001 -9.882835e-002 -2.549360e+001 -5.376841e+001 -3.112896e+001
122316245.15625 -4.909053e+001 -3.203999e+001 -9.942702e-002 -2.584492e+001 -9.823389e-002 -2.582648e+001 -5.408532e+001 -3.482561e+001
123708386.25 -4.889372e+001 -3.057460e+001 -9.966188e-002 -2.617079e+001 -1.010824e-001 -2.608893e+001 -5.436758e+001 -3.540134e+001
125100527.34375 -4.913598e+001 -3.078954e+001 -1.023675e-001 -2.640455e+001 -1.133642e-001 -2.641146e+001 -5.434170e+001 -3.570604e+001
126492668.4375 -4.909861e+001 -3.164146e+001 -9.795492e-002 -2.667645e+001 -1.043141e-001 -2.669361e+001 -5.398946e+001 -3.278958e+001
127884809.53125 -4.887274e+001 -3.246444e+001 -1.016197e-001 -2.703770e+001 -1.052970e-001 -2.693857e+001 -5.436140e+001 -3.576191e+001
129276950.625 -4.887927e+001 -3.273623e+001 -1.042865e-001 -2.729079e+001 -1.070568e-001 -2.725078e+001 -5.426209e+001 -3.501259e+001
130669091.71875 -4.872173e+001 -3.333411e+001 -1.044003e-001 -2.762048e+001 -9.446046e-002 -2.755019e+001 -5.442500e+001 -4.068770e+001
132061232.8125 -4.859398e+001 -3.436420e+001 -1.110279e-001 -2.787807e+001 -1.068861e-001 -2.783275e+001 -5.449847e+001 -4.091984e+001
133453373.90625 -4.862366e+001 -3.351591e+001 -1.050752e-001 -2.816448e+001 -1.037854e-001 -2.811025e+001 -5.460854e+001 -3.731855e+001
134845515 -4.848203e+001 -3.433694e+001 -1.023701e-001 -2.847715e+001 -1.088350e-001 -2.844165e+001 -5.468595e+001 -4.148590e+001
136237656.09375 -4.844182e+001 -3.275871e+001 -1.078590e-001 -2.870096e+001 -1.131688e-001 -2.866866e+001 -5.490330e+001 -3.692929e+001
137629797.1875 -4.852716e+001 -3.586431e+001 -1.060929e-001 -2.900778e+001 -1.151957e-001 -2.898405e+001 -5.462921e+001 -4.150258e+001
139021938.28125 -4.833637e+001 -3.572883e+001 -1.086146e-001 -2.928529e+001 -1.132978e-001 -2.926300e+001 -5.468098e+001 -4.242738e+001
140414079.375 -4.810112e+001 -3.593665e+001 -1.048413e-001 -2.961251e+001 -1.125239e-001 -2.953457e+001 -5.462903e+001 -4.124974e+001
141806220.46875 -4.815602e+001 -3.667359e+001 -1.045326e-001 -2.991778e+001 -1.169920e-001 -2.987351e+001 -5.531232e+001 -4.333119e+001
143198361.5625 -4.826715e+001 -3.676532e+001 -1.054726e-001 -3.015095e+001 -1.170180e-001 -3.013362e+001 -5.502880e+001 -4.492229e+001
144590502.65625 -4.804829e+001 -3.752433e+001 -1.199655e-001 -3.045936e+001 -1.105379e-001 -3.043563e+001 -5.541034e+001 -4.131795e+001
145982643.75 -4.819969e+001 -3.822598e+001 -1.099489e-001 -3.078949e+001 -1.149840e-001 -3.069338e+001 -5.470771e+001 -4.541951e+001
147374784.84375 -4.792059e+001 -3.834726e+001 -1.158445e-001 -3.109327e+001 -1.244270e-001 -3.102938e+001 -5.537457e+001 -4.933396e+001
148766925.9375 -4.775684e+001 -3.691596e+001 -1.098088e-001 -3.138790e+001 -1.161583e-001 -3.132570e+001 -5.522291e+001 -4.649768e+001
150159067.03125 -4.788012e+001 -3.930685e+001 -1.148817e-001 -3.164184e+001 -1.125205e-001 -3.161133e+001 -5.545327e+001 -4.820082e+001
151551208.125 -4.776181e+001 -3.971451e+001 -1.095520e-001 -3.189085e+001 -1.220270e-001 -3.185110e+001 -5.592849e+001 -4.449036e+001
152943349.21875 -4.778856e+001 -3.907091e+001 -1.166101e-001 -3.220027e+001 -1.226752e-001 -3.215950e+001 -5.603210e+001 -4.867068e+001
154335490.3125 -4.763066e+001 -4.084647e+001 -1.190809e-001 -3.252310e+001 -1.234293e-001 -3.247368e+001 -5.590854e+001 -5.428027e+001
155727631.40625 -4.781562e+001 -4.001891e+001 -1.152049e-001 -3.277215e+001 -1.226205e-001 -3.275925e+001 -5.612149e+001 -5.027156e+001
157119772.5 -4.761332e+001 -4.228368e+001 -1.195312e-001 -3.304856e+001 -1.174779e-001 -3.304285e+001 -5.601406e+001 -5.282273e+001
158511913.59375 -4.755574e+001 -4.225127e+001 -1.215795e-001 -3.336784e+001 -1.205398e-001 -3.334935e+001 -5.671290e+001 -5.278347e+001
159904054.6875 -4.738754e+001 -4.314684e+001 -1.127106e-001 -3.367856e+001 -1.231279e-001 -3.364991e+001 -5.653607e+001 -5.412521e+001
161296195.78125 -4.739715e+001 -4.268547e+001 -1.200304e-001 -3.393193e+001 -1.304761e-001 -3.390771e+001 -5.696773e+001 -6.080177e+001
162688336.875 -4.720615e+001 -4.385936e+001 -1.105336e-001 -3.424401e+001 -1.214556e-001 -3.422139e+001 -5.649689e+001 -5.628794e+001
164080477.96875 -4.731871e+001 -4.316496e+001 -1.232274e-001 -3.453033e+001 -1.249812e-001 -3.441821e+001 -5.728747e+001 -6.003075e+001
165472619.0625 -4.763499e+001 -4.439949e+001 -1.303425e-001 -3.479408e+001 -1.172021e-001 -3.476724e+001 -5.709056e+001 -6.215449e+001
166864760.15625 -4.719837e+001 -4.493967e+001 -1.166431e-001 -3.511933e+001 -1.284967e-001 -3.503135e+001 -5.743655e+001 -6.070551e+001
168256901.25 -4.711465e+001 -4.636615e+001 -1.262990e-001 -3.533607e+001 -1.287339e-001 -3.533762e+001 -5.658121e+001 -5.905155e+001
169649042.34375 -4.712069e+001 -4.495663e+001 -1.195411e-001 -3.569206e+001 -1.312639e-001 -3.563723e+001 -5.704127e+001 -6.453299e+001
171041183.4375 -4.701213e+001 -4.610659e+001 -1.216555e-001 -3.595794e+001 -1.329437e-001 -3.593031e+001 -5.625946e+001 -6.587416e+001
172433324.53125 -4.723233e+001 -4.825749e+001 -1.214992e-001 -3.624315e+001 -1.243825e-001 -3.620089e+001 -5.762524e+001 -6.990176e+001
173825465.625 -4.707921e+001 -4.716296e+001 -1.291630e-001 -3.649342e+001 -1.376904e-001 -3.649471e+001 -5.855493e+001 -7.224915e+001
175217606.71875 -4.710958e+001 -4.723662e+001 -1.265753e-001 -3.680522e+001 -1.333785e-001 -3.677650e+001 -5.821821e+001 -6.988953e+001
176609747.8125 -4.689841e+001 -4.760295e+001 -1.343852e-001 -3.712830e+001 -1.341091e-001 -3.710336e+001 -5.846566e+001 -7.451847e+001
178001888.90625 -4.694087e+001 -4.942473e+001 -1.244203e-001 -3.738694e+001 -1.326125e-001 -3.734901e+001 -5.866390e+001 -7.208652e+001
179394030 -4.685023e+001 -4.935386e+001 -1.341783e-001 -3.766958e+001 -1.338331e-001 -3.765044e+001 -5.823329e+001 -7.733592e+001
180786171.09375 -4.698946e+001 -5.018163e+001 -1.312994e-001 -3.795695e+001 -1.318902e-001 -3.791530e+001 -5.769630e+001 -7.833138e+001
182178312.1875 -4.677688e+001 -4.943135e+001 -1.336581e-001 -3.827954e+001 -1.290226e-001 -3.822250e+001 -5.846985e+001 -8.083394e+001
183570453.28125 -4.684428e+001 -5.197804e+001 -1.346210e-001 -3.855254e+001 -1.353894e-001 -3.851418e+001 -5.964095e+001 -8.556564e+001
184962594.375 -4.669954e+001 -5.020750e+001 -1.378036e-001 -3.881339e+001 -1.434637e-001 -3.883213e+001 -5.933399e+001 -8.430593e+001
186354735.46875 -4.675949e+001 -5.136651e+001 -1.363314e-001 -3.913662e+001 -1.327650e-001 -3.909340e+001 -5.883797e+001 -9.375822e+001
187746876.5625 -4.660293e+001 -5.142798e+001 -1.308709e-001 -3.944862e+001 -1.331473e-001 -3.935762e+001 -6.083020e+001 -9.009702e+001
189139017.65625 -4.682749e+001 -5.061810e+001 -1.436326e-001 -3.978625e+001 -1.372060e-001 -3.967016e+001 -5.870891e+001 -9.423698e+001
190531158.75 -4.637749e+001 -5.352667e+001 -1.367994e-001 -4.001670e+001 -1.436465e-001 -3.996946e+001 -5.983602e+001 -9.649458e+001
191923299.84375 -4.675751e+001 -5.232652e+001 -1.382596e-001 -4.029347e+001 -1.403934e-001 -4.026410e+001 -6.054840e+001 -9.891270e+001
193315440.9375 -4.649403e+001 -5.347259e+001 -1.400180e-001 -4.055486e+001 -1.381664e-001 -4.051193e+001 -5.955559e+001 -1.038225e+002
194707582.03125 -4.664442e+001 -5.332767e+001 -1.461983e-001 -4.084597e+001 -1.452789e-001 -4.082841e+001 -5.962706e+001 -1.017977e+002
196099723.125 -4.659826e+001 -5.467466e+001 -1.410896e-001 -4.112910e+001 -1.393609e-001 -4.115237e+001 -5.933753e+001 -1.060696e+002
197491864.21875 -4.659749e+001 -5.377640e+001 -1.435186e-001 -4.143785e+001 -1.433189e-001 -4.139306e+001 -6.064279e+001 -1.078521e+002
198884005.3125 -4.648463e+001 -5.426366e+001 -1.347844e-001 -4.173719e+001 -1.461650e-001 -4.168957e+001 -5.994921e+001 -1.160115e+002
200276146.40625 -4.654956e+001 -5.564900e+001 -1.428350e-001 -4.204163e+001 -1.465338e-001 -4.202992e+001 -6.019605e+001 -1.161394e+002
201668287.5 -4.668866e+001 -5.608127e+001 -1.437082e-001 -4.230290e+001 -1.481763e-001 -4.222761e+001 -6.043526e+001 -1.162272e+002
203060428.59375 -4.648407e+001 -5.576469e+001 -1.427497e-001 -4.256954e+001 -1.437406e-001 -4.257412e+001 -6.055830e+001 -1.198675e+002
204452569.6875 -4.638414e+001 -5.749025e+001 -1.468351e-001 -4.290215e+001 -1.522824e-001 -4.282743e+001 -6.001970e+001 -1.131805e+002
205844710.78125 -4.640833e+001 -5.619343e+001 -1.488706e-001 -4.315049e+001 -1.505637e-001 -4.314863e+001 -6.037564e+001 -1.302240e+002
207236851.875 -4.621800e+001 -5.647033e+001 -1.482396e-001 -4.343678e+001 -1.464566e-001 -4.343482e+001 -6.062492e+001 -1.356383e+002
208628992.96875 -4.637628e+001 -5.791846e+001 -1.473587e-001 -4.376208e+001 -1.529569e-001 -4.372297e+001 -6.088833e+001 -1.334113e+002
210021134.0625 -4.637661e+001 -5.777906e+001 -1.478761e-001 -4.402707e+001 -1.541141e-001 -4.402140e+001 -6.053727e+001 -1.417955e+002
211413275.15625 -4.639084e+001 -5.778664e+001 -1.459534e-001 -4.433467e+001 -1.481576e-001 -4.431354e+001 -6.034078e+001 -1.343091e+002
212805416.25 -4.625153e+001 -5.652451e+001 -1.458287e-001 -4.462309e+001 -1.485554e-001 -4.454057e+001 -5.981212e+001 -1.367213e+002
214197557.34375 -4.595059e+001 -5.964090e+001 -1.493603e-001 -4.492241e+001 -1.524637e-001 -4.486683e+001 -5.936269e+001 -1.446275e+002
215589698.4375 -4.628854e+001 -5.874405e+001 -1.553183e-001 -4.514571e+001 -1.507333e-001 -4.514449e+001 -5.993439e+001 -1.476548e+002
216981839.53125 -4.619749e+001 -5.974836e+001 -1.443840e-001 -4.542891e+001 -1.592458e-001 -4.542746e+001 -5.998966e+001 -1.510905e+002
218373980.625 -4.621278e+001 -5.917899e+001 -1.518833e-001 -4.576148e+001 -1.525530e-001 -4.571344e+001 -5.962639e+001 -1.557255e+002
219766121.71875 -4.634541e+001 -5.833086e+001 -1.547648e-001 -4.604971e+001 -1.515616e-001 -4.599340e+001 -5.865850e+001 -1.542835e+002
221158262.8125 -4.607080e+001 -5.984302e+001 -1.507612e-001 -4.630812e+001 -1.567010e-001 -4.627313e+001 -5.905788e+001 -1.569146e+002
222550403.90625 -4.613105e+001 -6.032196e+001 -1.492703e-001 -4.653003e+001 -1.556723e-001 -4.660924e+001 -5.799404e+001 -1.714902e+002
223942545 -4.587312e+001 -6.069020e+001 -1.509987e-001 -4.688780e+001 -1.511376e-001 -4.683487e+001 -5.881790e+001 -1.674512e+002
225334686.09375 -4.610844e+001 -6.098642e+001 -1.548865e-001 -4.717149e+001 -1.608957e-001 -4.714461e+001 -5.799035e+001 -1.687775e+002
226726827.1875 -4.576330e+001 -6.008746e+001 -1.575953e-001 -4.744183e+001 -1.528929e-001 -4.745181e+001 -5.815278e+001 -1.696137e+002
228118968.28125 -4.601639e+001 -6.145140e+001 -1.510720e-001 -4.775901e+001 -1.670440e-001 -4.773821e+001 -5.800846e+001 -1.690378e+002
229511109.375 -4.593381e+001 -6.209407e+001 -1.532627e-001 -4.804919e+001 -1.608077e-001 -4.799784e+001 -5.746762e+001 -1.666771e+002
230903250.46875 -4.598705e+001 -6.267791e+001 -1.603670e-001 -4.835654e+001 -1.599168e-001 -4.831180e+001 -5.711076e+001 -1.700779e+002
232295391.5625 -4.582119e+001 -6.328598e+001 -1.535186e-001 -4.859358e+001 -1.597182e-001 -4.856700e+001 -5.772580e+001 -1.729565e+002
233687532.65625 -4.601846e+001 -6.294812e+001 -1.647994e-001 -4.889975e+001 -1.542490e-001 -4.884793e+001 -5.717236e+001 -1.770733e+002
235079673.75 -4.577417e+001 -6.326338e+001 -1.600533e-001 -4.923095e+001 -1.579809e-001 -4.914652e+001 -5.662818e+001 -1.765650e+002
236471814.84375 -4.585835e+001 -6.285180e+001 -1.580574e-001 -4.945615e+001 -1.625721e-001 -4.942528e+001 -5.627959e+001 -1.758362e+002
237863955.9375 -4.573976e+001 -6.353036e+001 -1.588520e-001 -4.976111e+001 -1.570989e-001 -4.975320e+001 -5.612468e+001 -1.793281e+002
239256097.03125 -4.570595e+001 -6.542834e+001 -1.593740e-001 -5.004810e+001 -1.611910e-001 -5.001191e+001 -5.625851e+001 1.784712e+002
240648238.125 -4.577721e+001 -6.459853e+001 -1.659572e-001 -5.034736e+001 -1.706789e-001 -5.034449e+001 -5.631030e+001 1.785365e+002
242040379.21875 -4.563829e+001 -6.524697e+001 -1.615331e-001 -5.057561e+001 -1.703224e-001 -5.062748e+001 -5.544264e+001 1.779279e+002
243432520.3125 -4.558824e+001 -6.563898e+001 -1.627027e-001 -5.092249e+001 -1.675078e-001 -5.088789e+001 -5.582913e+001 1.793497e+002
244824661.40625 -4.561836e+001 -6.617802e+001 -1.649744e-001 -5.118640e+001 -1.669980e-001 -5.121424e+001 -5.522454e+001 1.723809e+002
246216802.5 -4.562691e+001 -6.550871e+001 -1.649636e-001 -5.152324e+001 -1.644839e-001 -5.148530e+001 -5.461613e+001 1.742128e+002
247608943.59375 -4.565277e+001 -6.563348e+001 -1.636248e-001 -5.174718e+001 -1.751399e-001 -5.172020e+001 -5.503233e+001 1.700536e+002
249001084.6875 -4.574942e+001 -6.707162e+001 -1.667822e-001 -5.208598e+001 -1.715711e-001 -5.205184e+001 -5.455834e+001 1.704118e+002
250393225.78125 -4.546409e+001 -6.662886e+001 -1.708089e-001 -5.230349e+001 -1.703791e-001 -5.236191e+001 -5.465110e+001 1.717502e+002
251785366.875 -4.561263e+001 -6.732348e+001 -1.732314e-001 -5.263334e+001 -1.706808e-001 -5.259893e+001 -5.395073e+001 1.676913e+002
253177507.96875 -4.543448e+001 -6.666953e+001 -1.696003e-001 -5.290925e+001 -1.657742e-001 -5.294147e+001 -5.448317e+001 1.725546e+002
254569649.0625 -4.556627e+001 -6.814226e+001 -1.674195e-001 -5.323965e+001 -1.646607e-001 -5.319809e+001 -5.397155e+001 1.673176e+002
255961790.15625 -4.529753e+001 -6.843303e+001 -1.663531e-001 -5.347603e+001 -1.634535e-001 -5.353178e+001 -5.345033e+001 1.630246e+002
257353931.25 -4.552757e+001 -6.731328e+001 -1.695073e-001 -5.378639e+001 -1.692033e-001 -5.375610e+001 -5.397893e+001 1.628324e+002
258746072.34375 -4.549527e+001 -6.815583e+001 -1.621117e-001 -5.405696e+001 -1.749053e-001 -5.405409e+001 -5.352129e+001 1.663799e+002
260138213.4375 -4.536228e+001 -6.893854e+001 -1.704689e-001 -5.437587e+001 -1.705220e-001 -5.433879e+001 -5.321379e+001 1.622343e+002
261530354.53125 -4.555112e+001 -6.919869e+001 -1.699029e-001 -5.468184e+001 -1.791993e-001 -5.464147e+001 -5.318450e+001 1.621476e+002
262922495.625 -4.544007e+001 -6.954784e+001 -1.792384e-001 -5.495502e+001 -1.760944e-001 -5.490168e+001 -5.280433e+001 1.588984e+002
264314636.71875 -4.520484e+001 -6.895142e+001 -1.768658e-001 -5.520654e+001 -1.712272e-001 -5.521415e+001 -5.239541e+001 1.606475e+002
265706777.8125 -4.522451e+001 -6.951180e+001 -1.744498e-001 -5.550962e+001 -1.785456e-001 -5.543128e+001 -5.291748e+001 1.573007e+002
267098918.90625 -4.532213e+001 -7.060152e+001 -1.707405e-001 -5.577243e+001 -1.806245e-001 -5.581039e+001 -5.239945e+001 1.586246e+002
268491060 -4.525990e+001 -7.103907e+001 -1.784034e-001 -5.609809e+001 -1.795510e-001 -5.607505e+001 -5.243814e+001 1.581610e+002
269883201.09375 -4.537210e+001 -7.150311e+001 -1.824362e-001 -5.639064e+001 -1.766372e-001 -5.635025e+001 -5.207645e+001 1.582324e+002
271275342.1875 -4.542290e+001 -7.078524e+001 -1.796062e-001 -5.669372e+001 -1.891312e-001 -5.661782e+001 -5.160899e+001 1.526135e+002
272667483.28125 -4.551535e+001 -7.066873e+001 -1.771615e-001 -5.692190e+001 -1.826783e-001 -5.690559e+001 -5.165182e+001 1.513865e+002
274059624.375 -4.533654e+001 -7.235664e+001 -1.727296e-001 -5.721530e+001 -1.787280e-001 -5.717938e+001 -5.202739e+001 1.508503e+002
275451765.46875 -4.526507e+001 -7.090234e+001 -1.741640e-001 -5.748291e+001 -1.816470e-001 -5.748429e+001 -5.192342e+001 1.492003e+002
276843906.5625 -4.541178e+001 -7.169505e+001 -1.808732e-001 -5.779475e+001 -1.884321e-001 -5.779163e+001 -5.136506e+001 1.513064e+002
278236047.65625 -4.529446e+001 -7.184516e+001 -1.780801e-001 -5.809645e+001 -1.844180e-001 -5.807277e+001 -5.125610e+001 1.537835e+002
279628188.75 -4.526291e+001 -7.295075e+001 -1.809793e-001 -5.838284e+001 -1.770692e-001 -5.833861e+001 -5.091183e+001 1.487441e+002
281020329.84375 -4.545852e+001 -7.311074e+001 -1.790352e-001 -5.865085e+001 -1.823913e-001 -5.862203e+001 -5.085894e+001 1.484280e+002
282412470.9375 -4.538123e+001 -7.368986e+001 -1.865104e-001 -5.895864e+001 -1.896607e-001 -5.890079e+001 -5.096060e+001 1.480537e+002
283804612.03125 -4.537386e+001 -7.195205e+001 -1.838551e-001 -5.924152e+001 -1.836263e-001 -5.915593e+001 -5.066465e+001 1.450619e+002
285196753.125 -4.520097e+001 -7.304085e+001 -1.883567e-001 -5.952750e+001 -1.864226e-001 -5.949999e+001 -5.087598e+001 1.466194e+002
286588894.21875 -4.529256e+001 -7.351710e+001 -1.801940e-001 -5.979463e+001 -1.863416e-001 -5.980266e+001 -5.063509e+001 1.426642e+002
287981035.3125 -4.533921e+001 -7.284740e+001 -1.816021e-001 -6.005577e+001 -1.897185e-001 -6.007890e+001 -5.041838e+001 1.437526e+002
289373176.40625 -4.517941e+001 -7.336351e+001 -1.872293e-001 -6.037135e+001 -1.878779e-001 -6.037242e+001 -5.031341e+001 1.451980e+002
290765317.5 -4.516793e+001 -7.269744e+001 -1.832734e-001 -6.068269e+001 -1.818666e-001 -6.065416e+001 -4.992545e+001 1.413458e+002
