!Agilent Technologies,E8803A,US42160105,A.06.04.32
!Agilent E8803A: A.06.04.32
!Date: Wednesday, April 19, 2023 22:22:22
!Correction: S11(Full 2 Port(1,2)) S21(Full 2 Port(1,2)) S12(Full 2 Port(1,2)) S22(Full 2 Port(1,2)) 
!S2P File: Measurements: S11, S21, S12, S22:
# Hz S  dB   R 50
300000 -5.561453e+001 1.399534e+001 -1.465049e-002 -1.183262e-001 -1.246927e-002 -9.132548e-002 -5.572292e+001 2.228478e+001
1706203.125 -5.452394e+001 8.619534e+000 -2.046261e-002 -4.270901e-001 -1.401428e-002 -4.244307e-001 -5.451036e+001 8.819768e+000
3112406.25 -5.403881e+001 6.983124e+000 -2.082618e-002 -7.602637e-001 -1.547535e-002 -7.633253e-001 -5.411281e+001 7.677027e+000
4518609.375 -5.375246e+001 5.885390e+000 -2.131194e-002 -1.086211e+000 -1.812279e-002 -1.075127e+000 -5.375899e+001 7.037824e+000
5924812.5 -5.356863e+001 5.389959e+000 -1.985656e-002 -1.400303e+000 -2.268423e-002 -1.414273e+000 -5.355408e+001 5.712620e+000
7331015.625 -5.345304e+001 5.518429e+000 -2.740357e-002 -1.745808e+000 -1.707195e-002 -1.719756e+000 -5.334013e+001 5.675996e+000
8737218.75 -5.338374e+001 5.142596e+000 -2.400341e-002 -2.062820e+000 -2.365894e-002 -2.050998e+000 -5.326430e+001 4.304979e+000
10143421.875 -5.331389e+001 1.831800e+000 -2.557061e-002 -2.326197e+000 -2.833010e-002 -2.360286e+000 -5.314661e+001 2.332360e+000
11549625 -5.308655e+001 3.274561e+000 -2.964775e-002 -2.660517e+000 -2.702063e-002 -2.685817e+000 -5.304151e+001 3.456883e+000
12955828.125 -5.294692e+001 1.749583e+000 -3.146758e-002 -2.996289e+000 -2.796683e-002 -3.010124e+000 -5.277805e+001 2.431599e+000
14362031.25 -5.287376e+001 2.336148e+000 -3.109067e-002 -3.326916e+000 -3.012256e-002 -3.334657e+000 -5.282468e+001 2.285860e+000
15768234.375 -5.300406e+001 1.496324e+000 -3.455165e-002 -3.652950e+000 -3.183438e-002 -3.644112e+000 -5.277035e+001 1.692509e+000
17174437.5 -5.263821e+001 1.314261e+000 -3.452798e-002 -3.973992e+000 -3.370366e-002 -3.972219e+000 -5.251046e+001 1.445058e+000
18580640.625 -5.270443e+001 1.234909e+000 -3.357003e-002 -4.284038e+000 -3.020711e-002 -4.310097e+000 -5.260661e+001 3.475715e-001
19986843.75 -5.259143e+001 -1.707493e-001 -3.871803e-002 -4.608743e+000 -3.222386e-002 -4.603377e+000 -5.254676e+001 1.876105e-002
21393046.875 -5.250795e+001 -1.334092e-001 -3.475195e-002 -4.923991e+000 -3.613549e-002 -4.932148e+000 -5.241854e+001 -6.183735e-001
22799250 -5.248698e+001 -4.517292e-001 -3.854569e-002 -5.242838e+000 -3.822486e-002 -5.252454e+000 -5.225099e+001 -1.888873e+000
24205453.125 -5.236140e+001 -2.516419e-001 -4.020924e-002 -5.575202e+000 -3.815193e-002 -5.581808e+000 -5.214741e+001 -1.305586e+000
25611656.25 -5.236310e+001 -1.295989e+000 -3.869601e-002 -5.870831e+000 -3.937525e-002 -5.902166e+000 -5.194147e+001 -1.884922e+000
27017859.375 -5.227759e+001 -1.470934e+000 -4.125043e-002 -6.214759e+000 -3.819720e-002 -6.203566e+000 -5.203251e+001 -1.666100e+000
28424062.5 -5.224408e+001 -2.070271e+000 -4.237388e-002 -6.521597e+000 -4.279749e-002 -6.536449e+000 -5.217279e+001 -2.335565e+000
29830265.625 -5.218382e+001 -2.778271e+000 -4.358450e-002 -6.849645e+000 -4.203960e-002 -6.855115e+000 -5.196790e+001 -2.924902e+000
31236468.75 -5.204295e+001 -2.401843e+000 -4.559398e-002 -7.158934e+000 -4.295199e-002 -7.149884e+000 -5.193239e+001 -4.286074e+000
32642671.875 -5.210234e+001 -2.933819e+000 -4.434749e-002 -7.489145e+000 -4.393962e-002 -7.468817e+000 -5.184078e+001 -4.635380e+000
34048875 -5.192544e+001 -3.834980e+000 -4.750243e-002 -7.798920e+000 -4.577185e-002 -7.783448e+000 -5.163942e+001 -4.148779e+000
35455078.125 -5.202773e+001 -4.568458e+000 -4.888874e-002 -8.124009e+000 -4.644050e-002 -8.102159e+000 -5.156817e+001 -4.590894e+000
36861281.25 -5.174115e+001 -5.239636e+000 -4.785779e-002 -8.432685e+000 -4.942105e-002 -8.423049e+000 -5.167679e+001 -5.130194e+000
38267484.375 -5.177840e+001 -5.504878e+000 -5.031708e-002 -8.769297e+000 -4.931442e-002 -8.755343e+000 -5.146039e+001 -6.308811e+000
39673687.5 -5.164462e+001 -6.479252e+000 -5.138282e-002 -9.060289e+000 -4.970589e-002 -9.035918e+000 -5.150396e+001 -7.250767e+000
41079890.625 -5.169078e+001 -5.256261e+000 -5.145681e-002 -9.355862e+000 -4.982968e-002 -9.379854e+000 -5.142029e+001 -7.146320e+000
42486093.75 -5.156841e+001 -7.420653e+000 -5.454875e-002 -9.691659e+000 -5.338417e-002 -9.670196e+000 -5.139291e+001 -6.772290e+000
43892296.875 -5.149295e+001 -7.257631e+000 -5.680040e-002 -1.001659e+001 -5.165498e-002 -9.998035e+000 -5.120942e+001 -8.413152e+000
45298500 -5.151930e+001 -7.537052e+000 -5.741099e-002 -1.031713e+001 -5.454546e-002 -1.031174e+001 -5.114185e+001 -8.340986e+000
46704703.125 -5.144563e+001 -7.754980e+000 -5.528291e-002 -1.064558e+001 -5.465112e-002 -1.064215e+001 -5.105793e+001 -8.774045e+000
48110906.25 -5.129160e+001 -7.953341e+000 -5.700717e-002 -1.095806e+001 -5.358820e-002 -1.093146e+001 -5.117534e+001 -8.769956e+000
49517109.375 -5.133046e+001 -8.668530e+000 -5.957402e-002 -1.128721e+001 -6.067579e-002 -1.125951e+001 -5.094530e+001 -9.642334e+000
50923312.5 -5.130486e+001 -8.859133e+000 -5.828545e-002 -1.160096e+001 -5.764485e-002 -1.158221e+001 -5.096451e+001 -9.872161e+000
52329515.625 -5.112923e+001 -1.004291e+001 -6.476114e-002 -1.188990e+001 -6.090230e-002 -1.187923e+001 -5.086273e+001 -1.087744e+001
53735718.75 -5.113829e+001 -1.026307e+001 -6.359677e-002 -1.222215e+001 -6.044761e-002 -1.222793e+001 -5.072017e+001 -1.160346e+001
55141921.875 -5.110753e+001 -1.028934e+001 -6.558482e-002 -1.252459e+001 -6.264439e-002 -1.252102e+001 -5.085379e+001 -1.337904e+001
56548125 -5.108224e+001 -1.078545e+001 -6.731539e-002 -1.286347e+001 -6.357078e-002 -1.283935e+001 -5.072124e+001 -1.218136e+001
57954328.125 -5.097929e+001 -1.131085e+001 -6.440129e-002 -1.315257e+001 -6.330493e-002 -1.317279e+001 -5.070321e+001 -1.314143e+001
59360531.25 -5.101423e+001 -1.146377e+001 -6.682874e-002 -1.348183e+001 -6.397317e-002 -1.345182e+001 -5.067065e+001 -1.272791e+001
60766734.375 -5.088290e+001 -1.153106e+001 -6.794909e-002 -1.380242e+001 -6.697880e-002 -1.379211e+001 -5.049431e+001 -1.350927e+001
62172937.5 -5.092083e+001 -1.153586e+001 -6.715579e-002 -1.410552e+001 -6.864831e-002 -1.409796e+001 -5.046291e+001 -1.336383e+001
63579140.625 -5.086209e+001 -1.210088e+001 -6.826975e-002 -1.442680e+001 -6.975877e-002 -1.441680e+001 -5.054567e+001 -1.429682e+001
64985343.75 -5.074892e+001 -1.254624e+001 -7.071483e-002 -1.475269e+001 -6.753222e-002 -1.470235e+001 -5.026987e+001 -1.395785e+001
66391546.875 -5.075755e+001 -1.305876e+001 -7.052742e-002 -1.503112e+001 -7.068113e-002 -1.502972e+001 -5.036652e+001 -1.422678e+001
67797750 -5.072564e+001 -1.301807e+001 -7.079512e-002 -1.533658e+001 -7.112407e-002 -1.533991e+001 -5.029439e+001 -1.607475e+001
69203953.125 -5.070666e+001 -1.337710e+001 -7.283726e-002 -1.566889e+001 -7.331774e-002 -1.567782e+001 -5.017885e+001 -1.563737e+001
70610156.25 -5.071827e+001 -1.335517e+001 -7.560540e-002 -1.599868e+001 -7.687788e-002 -1.598978e+001 -5.006633e+001 -1.554525e+001
72016359.375 -5.072258e+001 -1.372286e+001 -7.645074e-002 -1.630736e+001 -7.754453e-002 -1.628845e+001 -5.021333e+001 -1.606446e+001
73422562.5 -5.060631e+001 -1.346299e+001 -7.609390e-002 -1.661999e+001 -7.568157e-002 -1.659786e+001 -5.007315e+001 -1.682804e+001
74828765.625 -5.048747e+001 -1.424917e+001 -7.707079e-002 -1.693387e+001 -7.527681e-002 -1.690945e+001 -5.002261e+001 -1.612763e+001
76234968.75 -5.043055e+001 -1.383100e+001 -7.730602e-002 -1.724669e+001 -7.604679e-002 -1.723275e+001 -4.999924e+001 -1.666186e+001
77641171.875 -5.033820e+001 -1.407950e+001 -7.708120e-002 -1.753205e+001 -7.889368e-002 -1.754126e+001 -4.987196e+001 -1.668333e+001
79047375 -5.042895e+001 -1.455449e+001 -7.987163e-002 -1.786594e+001 -7.914648e-002 -1.785704e+001 -4.986043e+001 -1.780431e+001
80453578.125 -5.048392e+001 -1.510143e+001 -8.162314e-002 -1.817476e+001 -8.158438e-002 -1.818354e+001 -4.985863e+001 -1.702567e+001
81859781.25 -5.039922e+001 -1.460950e+001 -8.194972e-002 -1.849009e+001 -8.146925e-002 -1.850789e+001 -4.982140e+001 -1.719166e+001
83265984.375 -5.025653e+001 -1.395399e+001 -8.316509e-002 -1.878673e+001 -8.287253e-002 -1.879610e+001 -4.978761e+001 -1.769782e+001
84672187.5 -5.023068e+001 -1.502893e+001 -8.515392e-002 -1.911045e+001 -8.292982e-002 -1.911586e+001 -4.970177e+001 -1.733746e+001
86078390.625 -5.009784e+001 -1.532332e+001 -8.480649e-002 -1.941320e+001 -8.739839e-002 -1.942232e+001 -4.974719e+001 -1.815435e+001
87484593.75 -5.010320e+001 -1.418250e+001 -8.336399e-002 -1.973862e+001 -8.407258e-002 -1.971993e+001 -4.961257e+001 -1.789231e+001
88890796.875 -5.011751e+001 -1.457976e+001 -8.895704e-002 -2.004733e+001 -8.667333e-002 -2.006410e+001 -4.952966e+001 -1.796689e+001
90297000 -5.011888e+001 -1.491405e+001 -8.689081e-002 -2.036733e+001 -8.713877e-002 -2.035992e+001 -4.941083e+001 -1.797963e+001
91703203.125 -5.008188e+001 -1.476563e+001 -9.104229e-002 -2.068971e+001 -8.738703e-002 -2.067677e+001 -4.944536e+001 -1.737903e+001
93109406.25 -5.012703e+001 -1.407043e+001 -9.245514e-002 -2.099003e+001 -8.839209e-002 -2.098382e+001 -4.951833e+001 -1.846670e+001
94515609.375 -5.005422e+001 -1.439139e+001 -8.832694e-002 -2.129954e+001 -9.163257e-002 -2.130739e+001 -4.937497e+001 -1.755615e+001
95921812.5 -5.009434e+001 -1.396243e+001 -8.998644e-002 -2.159982e+001 -9.130252e-002 -2.161618e+001 -4.934110e+001 -1.812366e+001
97328015.625 -4.999113e+001 -1.389211e+001 -9.233050e-002 -2.191078e+001 -9.281072e-002 -2.193739e+001 -4.929026e+001 -1.823220e+001
98734218.75 -5.000630e+001 -1.389454e+001 -9.049257e-002 -2.223964e+001 -9.188963e-002 -2.222588e+001 -4.921058e+001 -1.803923e+001
100140421.875 -4.994128e+001 -1.262935e+001 -9.473938e-002 -2.254142e+001 -9.429803e-002 -2.257481e+001 -4.936052e+001 -1.781367e+001
101546625 -4.986875e+001 -1.350457e+001 -9.553164e-002 -2.287003e+001 -9.498585e-002 -2.286372e+001 -4.916293e+001 -1.756592e+001
102952828.125 -4.989640e+001 -1.320268e+001 -9.665698e-002 -2.316327e+001 -9.471252e-002 -2.316746e+001 -4.910261e+001 -1.783186e+001
104359031.25 -4.992057e+001 -1.271878e+001 -9.471181e-002 -2.349357e+001 -9.598637e-002 -2.349545e+001 -4.902438e+001 -1.699769e+001
105765234.375 -4.988038e+001 -1.251887e+001 -9.687679e-002 -2.381724e+001 -9.715069e-002 -2.380886e+001 -4.905079e+001 -1.680667e+001
107171437.5 -4.979798e+001 -1.231579e+001 -9.991888e-002 -2.413848e+001 -1.002945e-001 -2.411222e+001 -4.898261e+001 -1.728427e+001
108577640.625 -4.962159e+001 -1.213119e+001 -1.027543e-001 -2.441843e+001 -1.000901e-001 -2.441658e+001 -4.902992e+001 -1.667285e+001
109983843.75 -4.971806e+001 -1.177358e+001 -1.021366e-001 -2.473309e+001 -1.002769e-001 -2.474951e+001 -4.878039e+001 -1.623287e+001
111390046.875 -4.964645e+001 -1.130437e+001 -1.027156e-001 -2.504915e+001 -1.023310e-001 -2.504828e+001 -4.893592e+001 -1.638192e+001
112796250 -4.966614e+001 -1.058412e+001 -1.040960e-001 -2.537631e+001 -1.023529e-001 -2.537243e+001 -4.879890e+001 -1.608895e+001
114202453.125 -4.969601e+001 -1.023694e+001 -1.056341e-001 -2.568314e+001 -1.016828e-001 -2.566132e+001 -4.878472e+001 -1.585548e+001
115608656.25 -4.951236e+001 -8.851659e+000 -1.078468e-001 -2.596389e+001 -1.052821e-001 -2.596803e+001 -4.877972e+001 -1.530118e+001
117014859.375 -4.959821e+001 -9.550652e+000 -1.068540e-001 -2.629340e+001 -1.064943e-001 -2.629213e+001 -4.857087e+001 -1.509520e+001
118421062.5 -4.953279e+001 -8.807298e+000 -1.063669e-001 -2.661155e+001 -1.042919e-001 -2.660042e+001 -4.852927e+001 -1.446230e+001
119827265.625 -4.941924e+001 -8.826846e+000 -1.092949e-001 -2.691922e+001 -1.079353e-001 -2.691945e+001 -4.857180e+001 -1.479638e+001
121233468.75 -4.932743e+001 -8.629874e+000 -1.125239e-001 -2.722816e+001 -1.096956e-001 -2.721458e+001 -4.850044e+001 -1.383876e+001
122639671.875 -4.934334e+001 -6.375391e+000 -1.103497e-001 -2.755462e+001 -1.092706e-001 -2.752212e+001 -4.843931e+001 -1.406186e+001
124045875 -4.913540e+001 -6.128894e+000 -1.121896e-001 -2.786427e+001 -1.093578e-001 -2.783804e+001 -4.835592e+001 -1.234038e+001
125452078.125 -4.917089e+001 -5.504179e+000 -1.136885e-001 -2.815801e+001 -1.130542e-001 -2.815771e+001 -4.833982e+001 -1.321102e+001
126858281.25 -4.911980e+001 -4.926143e+000 -1.122901e-001 -2.846527e+001 -1.081461e-001 -2.847693e+001 -4.816989e+001 -1.173120e+001
128264484.375 -4.904504e+001 -4.049493e+000 -1.136409e-001 -2.879926e+001 -1.117512e-001 -2.879496e+001 -4.811623e+001 -1.119628e+001
129670687.5 -4.906287e+001 -3.332752e+000 -1.105325e-001 -2.909604e+001 -1.156785e-001 -2.909616e+001 -4.804926e+001 -1.080574e+001
131076890.625 -4.893350e+001 -2.800218e+000 -1.120627e-001 -2.942659e+001 -1.146804e-001 -2.939807e+001 -4.797313e+001 -1.000436e+001
132483093.75 -4.866211e+001 -2.105995e+000 -1.146006e-001 -2.972572e+001 -1.180224e-001 -2.971838e+001 -4.790910e+001 -1.037368e+001
133889296.875 -4.878070e+001 -1.515464e+000 -1.181782e-001 -3.003235e+001 -1.154582e-001 -3.003096e+001 -4.778567e+001 -9.908823e+000
135295500 -4.868457e+001 -4.226503e-001 -1.189695e-001 -3.032672e+001 -1.170394e-001 -3.032646e+001 -4.780563e+001 -8.907591e+000
136701703.125 -4.857685e+001 3.749969e-001 -1.174507e-001 -3.066321e+001 -1.192475e-001 -3.066163e+001 -4.764135e+001 -8.674920e+000
138107906.25 -4.845548e+001 7.862541e-001 -1.195330e-001 -3.096141e+001 -1.179576e-001 -3.096878e+001 -4.754852e+001 -6.924599e+000
139514109.375 -4.834173e+001 2.271735e+000 -1.199437e-001 -3.127615e+001 -1.207876e-001 -3.126861e+001 -4.746322e+001 -7.018622e+000
140920312.5 -4.825651e+001 2.448854e+000 -1.203434e-001 -3.158197e+001 -1.208772e-001 -3.158119e+001 -4.734017e+001 -6.592391e+000
142326515.625 -4.806483e+001 2.380796e+000 -1.201777e-001 -3.190323e+001 -1.194099e-001 -3.188537e+001 -4.720981e+001 -5.504125e+000
143732718.75 -4.801970e+001 3.994048e+000 -1.248803e-001 -3.220422e+001 -1.227076e-001 -3.219781e+001 -4.716615e+001 -5.570902e+000
145138921.875 -4.790257e+001 4.712018e+000 -1.234996e-001 -3.253878e+001 -1.235281e-001 -3.252938e+001 -4.700840e+001 -4.485545e+000
146545125 -4.779549e+001 5.225825e+000 -1.240080e-001 -3.282891e+001 -1.266950e-001 -3.282978e+001 -4.697766e+001 -3.258583e+000
147951328.125 -4.764571e+001 5.539478e+000 -1.245205e-001 -3.314578e+001 -1.244806e-001 -3.314856e+001 -4.677393e+001 -3.001202e+000
149357531.25 -4.748519e+001 6.854429e+000 -1.274915e-001 -3.343833e+001 -1.228973e-001 -3.343800e+001 -4.666440e+001 -2.616774e+000
150763734.375 -4.743945e+001 7.599424e+000 -1.271555e-001 -3.375599e+001 -1.290135e-001 -3.376111e+001 -4.665189e+001 -2.573500e+000
152169937.5 -4.728768e+001 8.342007e+000 -1.289488e-001 -3.406085e+001 -1.276180e-001 -3.408917e+001 -4.658948e+001 -1.696929e+000
153576140.625 -4.714975e+001 9.055851e+000 -1.295853e-001 -3.438843e+001 -1.303693e-001 -3.436243e+001 -4.642719e+001 -3.659942e-001
154982343.75 -4.692985e+001 1.029074e+001 -1.289212e-001 -3.470142e+001 -1.315324e-001 -3.469131e+001 -4.615646e+001 3.093400e-001
156388546.875 -4.679717e+001 1.011562e+001 -1.288412e-001 -3.501797e+001 -1.339478e-001 -3.499909e+001 -4.615532e+001 5.870416e-001
157794750 -4.668198e+001 1.056723e+001 -1.308410e-001 -3.532434e+001 -1.322566e-001 -3.529489e+001 -4.595202e+001 1.472873e+000
159200953.125 -4.660746e+001 1.140680e+001 -1.357935e-001 -3.562334e+001 -1.335019e-001 -3.560436e+001 -4.579564e+001 1.915621e+000
160607156.25 -4.635984e+001 1.258260e+001 -1.364708e-001 -3.592387e+001 -1.328254e-001 -3.592488e+001 -4.573790e+001 2.397857e+000
162013359.375 -4.614959e+001 1.328843e+001 -1.367630e-001 -3.623421e+001 -1.325145e-001 -3.623049e+001 -4.556860e+001 3.852367e+000
163419562.5 -4.599801e+001 1.391432e+001 -1.372451e-001 -3.655516e+001 -1.365372e-001 -3.655803e+001 -4.542449e+001 3.550479e+000
164825765.625 -4.591335e+001 1.465959e+001 -1.370686e-001 -3.687503e+001 -1.351961e-001 -3.686808e+001 -4.531244e+001 4.223046e+000
166231968.75 -4.570004e+001 1.527547e+001 -1.344212e-001 -3.717906e+001 -1.360832e-001 -3.718296e+001 -4.514882e+001 4.752259e+000
167638171.875 -4.553592e+001 1.581525e+001 -1.384337e-001 -3.748101e+001 -1.389319e-001 -3.748832e+001 -4.497327e+001 4.982719e+000
169044375 -4.533016e+001 1.618926e+001 -1.393975e-001 -3.779433e+001 -1.399610e-001 -3.779951e+001 -4.484086e+001 5.737535e+000
170450578.125 -4.519994e+001 1.670381e+001 -1.418892e-001 -3.811235e+001 -1.379017e-001 -3.811660e+001 -4.470501e+001 6.871849e+000
171856781.25 -4.501311e+001 1.687271e+001 -1.404003e-001 -3.841577e+001 -1.412961e-001 -3.842762e+001 -4.446585e+001 7.225579e+000
173262984.375 -4.480340e+001 1.769681e+001 -1.427380e-001 -3.873884e+001 -1.434113e-001 -3.871235e+001 -4.436604e+001 7.427051e+000
174669187.5 -4.464285e+001 1.846298e+001 -1.445139e-001 -3.903281e+001 -1.403216e-001 -3.906217e+001 -4.420019e+001 8.352688e+000
176075390.625 -4.445430e+001 1.913830e+001 -1.412246e-001 -3.932675e+001 -1.424856e-001 -3.934155e+001 -4.403833e+001 8.890900e+000
177481593.75 -4.425717e+001 1.966574e+001 -1.402029e-001 -3.965191e+001 -1.427138e-001 -3.965297e+001 -4.387632e+001 9.198239e+000
178887796.875 -4.410118e+001 1.983178e+001 -1.433020e-001 -3.997358e+001 -1.440204e-001 -3.996587e+001 -4.363465e+001 9.876724e+000
180294000 -4.387902e+001 2.018345e+001 -1.447116e-001 -4.028257e+001 -1.450790e-001 -4.028154e+001 -4.360754e+001 1.030333e+001
181700203.125 -4.367040e+001 2.109283e+001 -1.447936e-001 -4.058327e+001 -1.470008e-001 -4.057873e+001 -4.336431e+001 1.097716e+001
183106406.25 -4.355529e+001 2.125519e+001 -1.466677e-001 -4.090590e+001 -1.468315e-001 -4.090341e+001 -4.323024e+001 1.095213e+001
184512609.375 -4.336661e+001 2.160477e+001 -1.497710e-001 -4.120580e+001 -1.499310e-001 -4.118678e+001 -4.303416e+001 1.130023e+001
185918812.5 -4.318727e+001 2.194003e+001 -1.504103e-001 -4.152621e+001 -1.471828e-001 -4.151934e+001 -4.289238e+001 1.229554e+001
187325015.625 -4.306896e+001 2.184367e+001 -1.491939e-001 -4.181456e+001 -1.486495e-001 -4.182907e+001 -4.274252e+001 1.256485e+001
188731218.75 -4.277166e+001 2.242169e+001 -1.508563e-001 -4.213725e+001 -1.506877e-001 -4.214775e+001 -4.250502e+001 1.281337e+001
190137421.875 -4.261312e+001 2.298910e+001 -1.529484e-001 -4.244236e+001 -1.507680e-001 -4.244126e+001 -4.227148e+001 1.342522e+001
191543625 -4.242701e+001 2.354716e+001 -1.489739e-001 -4.276578e+001 -1.530092e-001 -4.277562e+001 -4.218726e+001 1.335102e+001
192949828.125 -4.228121e+001 2.354608e+001 -1.528348e-001 -4.308332e+001 -1.527957e-001 -4.306548e+001 -4.193164e+001 1.416471e+001
194356031.25 -4.205671e+001 2.362114e+001 -1.523204e-001 -4.337252e+001 -1.548309e-001 -4.337926e+001 -4.179051e+001 1.439467e+001
195762234.375 -4.184511e+001 2.418494e+001 -1.509050e-001 -4.370006e+001 -1.550970e-001 -4.369910e+001 -4.160762e+001 1.456263e+001
197168437.5 -4.172062e+001 2.447062e+001 -1.521759e-001 -4.399722e+001 -1.560622e-001 -4.399969e+001 -4.147678e+001 1.487552e+001
198574640.625 -4.146495e+001 2.440379e+001 -1.559363e-001 -4.430751e+001 -1.551816e-001 -4.432004e+001 -4.129905e+001 1.518027e+001
199980843.75 -4.131813e+001 2.498084e+001 -1.551126e-001 -4.462947e+001 -1.572104e-001 -4.462020e+001 -4.109509e+001 1.543177e+001
201387046.875 -4.111703e+001 2.512918e+001 -1.578939e-001 -4.493365e+001 -1.576590e-001 -4.494031e+001 -4.093885e+001 1.575430e+001
202793250 -4.090247e+001 2.519483e+001 -1.584449e-001 -4.524529e+001 -1.566550e-001 -4.524616e+001 -4.073966e+001 1.600728e+001
204199453.125 -4.078460e+001 2.539013e+001 -1.616011e-001 -4.556303e+001 -1.609587e-001 -4.555481e+001 -4.054733e+001 1.597860e+001
205605656.25 -4.057762e+001 2.537131e+001 -1.613818e-001 -4.586569e+001 -1.604988e-001 -4.586853e+001 -4.040055e+001 1.610590e+001
207011859.375 -4.038318e+001 2.551278e+001 -1.607259e-001 -4.618664e+001 -1.596300e-001 -4.617367e+001 -4.024778e+001 1.660403e+001
