!Agilent Technologies,E8803A,US42160105,A.06.04.32
!Agilent E8803A: A.06.04.32
!Date: Wednesday, April 19, 2023 22:19:04
!Correction: S11(Full 2 Port(1,2)) S21(Full 2 Port(1,2)) S12(Full 2 Port(1,2)) S22(Full 2 Port(1,2)) 
!S2P File: Measurements: S11, S21, S12, S22:
# Hz S  dB   R 50
300000 -5.533152e+001 1.646762e+001 -1.879207e-002 -1.092742e-001 -1.166913e-002 -7.828297e-002 -5.546054e+001 1.845811e+001
1706203.125 -5.340419e+001 2.624919e+001 -2.019526e-002 -4.001473e-001 -1.656096e-002 -4.015169e-001 -5.341443e+001 2.568586e+001
3112406.25 -5.215704e+001 3.535003e+001 -2.190449e-002 -7.154653e-001 -1.484209e-002 -7.215973e-001 -5.209667e+001 3.584568e+001
4518609.375 -5.074950e+001 4.264259e+001 -2.243445e-002 -1.017702e+000 -1.959907e-002 -1.015113e+000 -5.069076e+001 4.302918e+001
5924812.5 -4.951156e+001 4.821543e+001 -2.057009e-002 -1.322706e+000 -2.438039e-002 -1.323774e+000 -4.956727e+001 4.806758e+001
7331015.625 -4.848151e+001 5.291256e+001 -2.728030e-002 -1.621907e+000 -2.320643e-002 -1.613648e+000 -4.840143e+001 5.267217e+001
8737218.75 -4.746199e+001 5.641611e+001 -2.315889e-002 -1.944487e+000 -2.223295e-002 -1.932625e+000 -4.742875e+001 5.649214e+001
10143421.875 -4.663339e+001 5.778964e+001 -2.676721e-002 -2.194842e+000 -2.913240e-002 -2.216436e+000 -4.657097e+001 5.739889e+001
11549625 -4.568650e+001 6.033182e+001 -2.977161e-002 -2.497058e+000 -2.687801e-002 -2.533251e+000 -4.571515e+001 6.034046e+001
12955828.125 -4.490335e+001 6.187386e+001 -2.903657e-002 -2.816732e+000 -2.722296e-002 -2.832897e+000 -4.492747e+001 6.208793e+001
14362031.25 -4.419849e+001 6.362313e+001 -3.268000e-002 -3.141758e+000 -2.922637e-002 -3.120248e+000 -4.419946e+001 6.334464e+001
15768234.375 -4.352880e+001 6.495147e+001 -3.463685e-002 -3.430287e+000 -3.056045e-002 -3.427550e+000 -4.352345e+001 6.460753e+001
17174437.5 -4.290891e+001 6.564621e+001 -3.396528e-002 -3.751542e+000 -3.190774e-002 -3.725873e+000 -4.284959e+001 6.536854e+001
18580640.625 -4.228373e+001 6.686199e+001 -3.299969e-002 -4.030839e+000 -3.190933e-002 -4.050687e+000 -4.229155e+001 6.631752e+001
19986843.75 -4.179051e+001 6.766487e+001 -3.740846e-002 -4.328244e+000 -3.203557e-002 -4.324159e+000 -4.176356e+001 6.746722e+001
21393046.875 -4.121136e+001 6.810324e+001 -3.504305e-002 -4.628734e+000 -3.523742e-002 -4.625644e+000 -4.121262e+001 6.795763e+001
22799250 -4.074442e+001 6.861614e+001 -3.797077e-002 -4.928246e+000 -3.512334e-002 -4.928909e+000 -4.072160e+001 6.821748e+001
24205453.125 -4.028360e+001 6.909894e+001 -3.973663e-002 -5.229327e+000 -3.702272e-002 -5.223611e+000 -4.026312e+001 6.891976e+001
25611656.25 -3.984229e+001 6.950888e+001 -4.036716e-002 -5.513191e+000 -3.781718e-002 -5.538751e+000 -3.983002e+001 6.893880e+001
27017859.375 -3.940693e+001 6.952906e+001 -4.202140e-002 -5.814235e+000 -3.973358e-002 -5.823428e+000 -3.939726e+001 6.953127e+001
28424062.5 -3.900932e+001 6.990446e+001 -4.372052e-002 -6.136047e+000 -4.227247e-002 -6.125675e+000 -3.899472e+001 7.003499e+001
29830265.625 -3.864480e+001 7.005444e+001 -4.254565e-002 -6.402797e+000 -3.933350e-002 -6.428303e+000 -3.865002e+001 6.995164e+001
31236468.75 -3.824234e+001 7.020187e+001 -4.692640e-002 -6.697753e+000 -4.208443e-002 -6.696288e+000 -3.827740e+001 7.002431e+001
32642671.875 -3.790640e+001 7.033024e+001 -4.697024e-002 -7.023603e+000 -4.264273e-002 -7.013053e+000 -3.793687e+001 7.025249e+001
34048875 -3.758673e+001 7.034515e+001 -4.677277e-002 -7.312030e+000 -4.294077e-002 -7.296987e+000 -3.758094e+001 7.013013e+001
35455078.125 -3.725532e+001 7.048842e+001 -4.691135e-002 -7.624281e+000 -4.484277e-002 -7.594895e+000 -3.721247e+001 7.023833e+001
36861281.25 -3.693929e+001 7.039418e+001 -5.008453e-002 -7.885427e+000 -4.704018e-002 -7.892887e+000 -3.693551e+001 7.037642e+001
38267484.375 -3.664705e+001 7.041640e+001 -5.077493e-002 -8.225424e+000 -4.954474e-002 -8.204276e+000 -3.663179e+001 7.030652e+001
39673687.5 -3.634995e+001 7.028046e+001 -5.070018e-002 -8.507217e+000 -4.806564e-002 -8.488400e+000 -3.634651e+001 7.045982e+001
41079890.625 -3.605115e+001 7.045167e+001 -5.046716e-002 -8.771733e+000 -4.841695e-002 -8.785450e+000 -3.608291e+001 7.040186e+001
42486093.75 -3.580119e+001 7.021278e+001 -5.486984e-002 -9.096670e+000 -5.217875e-002 -9.071690e+000 -3.579219e+001 7.028170e+001
43892296.875 -3.552618e+001 7.021391e+001 -5.418285e-002 -9.380331e+000 -5.054437e-002 -9.385182e+000 -3.552813e+001 7.009923e+001
45298500 -3.529050e+001 7.015385e+001 -5.670575e-002 -9.663140e+000 -5.434658e-002 -9.668575e+000 -3.529026e+001 7.011536e+001
46704703.125 -3.503127e+001 7.010815e+001 -5.658170e-002 -9.969952e+000 -5.292264e-002 -9.972673e+000 -3.502148e+001 6.991441e+001
48110906.25 -3.479171e+001 6.982949e+001 -5.684030e-002 -1.027927e+001 -5.104009e-002 -1.026601e+001 -3.479404e+001 6.993278e+001
49517109.375 -3.455507e+001 6.990116e+001 -5.902369e-002 -1.056193e+001 -5.741502e-002 -1.055972e+001 -3.457168e+001 6.964285e+001
50923312.5 -3.432033e+001 6.970477e+001 -5.831848e-002 -1.085524e+001 -5.420672e-002 -1.085713e+001 -3.431396e+001 6.964928e+001
52329515.625 -3.411995e+001 6.956031e+001 -6.218811e-002 -1.115377e+001 -5.819490e-002 -1.114760e+001 -3.412366e+001 6.949036e+001
53735718.75 -3.389968e+001 6.936722e+001 -6.348626e-002 -1.144501e+001 -5.730786e-002 -1.144443e+001 -3.391334e+001 6.924260e+001
55141921.875 -3.369440e+001 6.923206e+001 -6.299654e-002 -1.174549e+001 -6.160935e-002 -1.173438e+001 -3.371278e+001 6.925782e+001
56548125 -3.347476e+001 6.901541e+001 -6.280047e-002 -1.206309e+001 -5.937386e-002 -1.205030e+001 -3.349651e+001 6.897531e+001
57954328.125 -3.327934e+001 6.894646e+001 -6.295638e-002 -1.233036e+001 -6.150781e-002 -1.235136e+001 -3.331367e+001 6.891160e+001
59360531.25 -3.310231e+001 6.877202e+001 -6.702426e-002 -1.263898e+001 -6.345919e-002 -1.261883e+001 -3.310935e+001 6.875968e+001
60766734.375 -3.290932e+001 6.849954e+001 -6.730729e-002 -1.291953e+001 -6.574055e-002 -1.290972e+001 -3.292261e+001 6.860464e+001
62172937.5 -3.271746e+001 6.841276e+001 -6.507252e-002 -1.320660e+001 -6.628113e-002 -1.320972e+001 -3.273402e+001 6.835474e+001
63579140.625 -3.252963e+001 6.829940e+001 -6.773405e-002 -1.350500e+001 -6.534063e-002 -1.349558e+001 -3.255557e+001 6.829493e+001
64985343.75 -3.234914e+001 6.794353e+001 -6.979982e-002 -1.382266e+001 -6.442953e-002 -1.379262e+001 -3.236499e+001 6.803806e+001
66391546.875 -3.218631e+001 6.783096e+001 -6.919896e-002 -1.410721e+001 -6.951594e-002 -1.410456e+001 -3.220781e+001 6.788315e+001
67797750 -3.202010e+001 6.762517e+001 -7.158967e-002 -1.438552e+001 -7.019985e-002 -1.438167e+001 -3.204971e+001 6.775275e+001
69203953.125 -3.185508e+001 6.743798e+001 -7.377026e-002 -1.468878e+001 -7.155612e-002 -1.469217e+001 -3.188019e+001 6.751202e+001
70610156.25 -3.168607e+001 6.726078e+001 -7.298682e-002 -1.498912e+001 -7.338030e-002 -1.497151e+001 -3.171269e+001 6.735007e+001
72016359.375 -3.152452e+001 6.705275e+001 -7.410349e-002 -1.526975e+001 -7.518936e-002 -1.526698e+001 -3.155842e+001 6.716317e+001
73422562.5 -3.137913e+001 6.680722e+001 -7.504703e-002 -1.557397e+001 -7.476784e-002 -1.555628e+001 -3.140348e+001 6.684290e+001
74828765.625 -3.121598e+001 6.659418e+001 -7.522272e-002 -1.586208e+001 -7.245217e-002 -1.586428e+001 -3.125671e+001 6.672694e+001
76234968.75 -3.107839e+001 6.645313e+001 -7.680629e-002 -1.616817e+001 -7.564787e-002 -1.615097e+001 -3.109530e+001 6.647668e+001
77641171.875 -3.092580e+001 6.616044e+001 -7.849451e-002 -1.642705e+001 -7.777093e-002 -1.643105e+001 -3.096168e+001 6.619859e+001
79047375 -3.078568e+001 6.600312e+001 -8.051237e-002 -1.673290e+001 -7.741889e-002 -1.673567e+001 -3.081465e+001 6.610903e+001
80453578.125 -3.065202e+001 6.584223e+001 -8.119576e-002 -1.702587e+001 -8.044857e-002 -1.702581e+001 -3.066628e+001 6.592110e+001
81859781.25 -3.050241e+001 6.557950e+001 -8.165873e-002 -1.732175e+001 -7.901300e-002 -1.733933e+001 -3.053797e+001 6.575954e+001
83265984.375 -3.035202e+001 6.525701e+001 -8.195159e-002 -1.761098e+001 -8.064724e-002 -1.760987e+001 -3.039538e+001 6.551984e+001
84672187.5 -3.023646e+001 6.508653e+001 -8.433825e-002 -1.790665e+001 -8.070068e-002 -1.791385e+001 -3.025057e+001 6.526238e+001
86078390.625 -3.009475e+001 6.476762e+001 -8.265127e-002 -1.818966e+001 -8.488176e-002 -1.819984e+001 -3.011911e+001 6.507301e+001
87484593.75 -2.996142e+001 6.461195e+001 -8.050083e-002 -1.849238e+001 -8.173735e-002 -1.848535e+001 -2.998793e+001 6.478294e+001
88890796.875 -2.984262e+001 6.439087e+001 -8.670942e-002 -1.879792e+001 -8.423652e-002 -1.879263e+001 -2.986074e+001 6.465291e+001
90297000 -2.971512e+001 6.419218e+001 -8.677086e-002 -1.909567e+001 -8.606742e-002 -1.908967e+001 -2.973826e+001 6.432400e+001
91703203.125 -2.959861e+001 6.390351e+001 -8.979158e-002 -1.940020e+001 -8.523161e-002 -1.938108e+001 -2.961557e+001 6.411105e+001
93109406.25 -2.946070e+001 6.376542e+001 -8.903112e-002 -1.965968e+001 -8.614273e-002 -1.966934e+001 -2.950035e+001 6.391192e+001
94515609.375 -2.934003e+001 6.353402e+001 -8.756875e-002 -1.994343e+001 -8.987588e-002 -1.997566e+001 -2.937727e+001 6.372556e+001
95921812.5 -2.923106e+001 6.333947e+001 -9.051953e-002 -2.025320e+001 -8.906130e-002 -2.025794e+001 -2.925325e+001 6.339438e+001
97328015.625 -2.911751e+001 6.308878e+001 -9.272787e-002 -2.053971e+001 -8.695546e-002 -2.055411e+001 -2.915003e+001 6.319544e+001
98734218.75 -2.899266e+001 6.282433e+001 -9.223071e-002 -2.083823e+001 -9.128652e-002 -2.082605e+001 -2.903492e+001 6.301155e+001
100140421.875 -2.887359e+001 6.256960e+001 -9.392442e-002 -2.114183e+001 -9.303174e-002 -2.114874e+001 -2.891931e+001 6.278959e+001
101546625 -2.877287e+001 6.234628e+001 -9.637716e-002 -2.141965e+001 -9.341755e-002 -2.142101e+001 -2.880536e+001 6.257332e+001
102952828.125 -2.866102e+001 6.206679e+001 -9.566856e-002 -2.172618e+001 -9.517503e-002 -2.169519e+001 -2.869974e+001 6.228813e+001
104359031.25 -2.856158e+001 6.185744e+001 -9.548346e-002 -2.202955e+001 -9.224581e-002 -2.200212e+001 -2.859591e+001 6.203488e+001
105765234.375 -2.844955e+001 6.167684e+001 -9.968413e-002 -2.230903e+001 -9.649298e-002 -2.229897e+001 -2.847745e+001 6.181071e+001
107171437.5 -2.835096e+001 6.136271e+001 -1.007460e-001 -2.260151e+001 -9.711741e-002 -2.258127e+001 -2.837726e+001 6.159111e+001
108577640.625 -2.823639e+001 6.108662e+001 -1.002903e-001 -2.287157e+001 -9.854347e-002 -2.287494e+001 -2.827584e+001 6.144004e+001
109983843.75 -2.814125e+001 6.084209e+001 -1.011734e-001 -2.316878e+001 -9.934127e-002 -2.317709e+001 -2.816602e+001 6.111205e+001
111390046.875 -2.804520e+001 6.060241e+001 -1.021502e-001 -2.345560e+001 -1.007625e-001 -2.348162e+001 -2.806206e+001 6.092223e+001
112796250 -2.793952e+001 6.037387e+001 -1.035969e-001 -2.377298e+001 -1.017283e-001 -2.376251e+001 -2.797635e+001 6.062567e+001
114202453.125 -2.784370e+001 6.021756e+001 -1.021395e-001 -2.405203e+001 -1.028196e-001 -2.404856e+001 -2.787964e+001 6.043273e+001
115608656.25 -2.773700e+001 5.992707e+001 -1.072660e-001 -2.431781e+001 -1.017588e-001 -2.432398e+001 -2.777938e+001 6.019770e+001
117014859.375 -2.764935e+001 5.975640e+001 -1.059283e-001 -2.461946e+001 -1.052099e-001 -2.462789e+001 -2.767891e+001 5.989294e+001
118421062.5 -2.755538e+001 5.946087e+001 -1.069440e-001 -2.491301e+001 -1.054475e-001 -2.489915e+001 -2.759712e+001 5.967937e+001
119827265.625 -2.746791e+001 5.915289e+001 -1.093985e-001 -2.522425e+001 -1.033846e-001 -2.521387e+001 -2.749220e+001 5.943802e+001
121233468.75 -2.736390e+001 5.891847e+001 -1.092435e-001 -2.550907e+001 -1.102488e-001 -2.550889e+001 -2.740683e+001 5.920610e+001
122639671.875 -2.727529e+001 5.871257e+001 -1.078066e-001 -2.579219e+001 -1.093105e-001 -2.578607e+001 -2.732684e+001 5.883656e+001
124045875 -2.718060e+001 5.842592e+001 -1.107004e-001 -2.609598e+001 -1.078761e-001 -2.607778e+001 -2.721988e+001 5.870786e+001
125452078.125 -2.709822e+001 5.818367e+001 -1.101586e-001 -2.638904e+001 -1.099988e-001 -2.637040e+001 -2.714154e+001 5.837386e+001
126858281.25 -2.700548e+001 5.798273e+001 -1.133645e-001 -2.666537e+001 -1.080754e-001 -2.667786e+001 -2.705187e+001 5.814929e+001
128264484.375 -2.692733e+001 5.769415e+001 -1.143748e-001 -2.697497e+001 -1.122419e-001 -2.698244e+001 -2.695443e+001 5.788240e+001
129670687.5 -2.683034e+001 5.745802e+001 -1.120337e-001 -2.724655e+001 -1.127518e-001 -2.726983e+001 -2.687616e+001 5.767964e+001
131076890.625 -2.675880e+001 5.720943e+001 -1.143120e-001 -2.756228e+001 -1.127018e-001 -2.753880e+001 -2.679607e+001 5.738458e+001
132483093.75 -2.666964e+001 5.694019e+001 -1.183111e-001 -2.783430e+001 -1.152086e-001 -2.783137e+001 -2.671272e+001 5.716442e+001
133889296.875 -2.659396e+001 5.673256e+001 -1.170690e-001 -2.814711e+001 -1.131429e-001 -2.814105e+001 -2.663090e+001 5.689050e+001
135295500 -2.650471e+001 5.647128e+001 -1.195792e-001 -2.842023e+001 -1.171809e-001 -2.841084e+001 -2.654906e+001 5.667704e+001
136701703.125 -2.642935e+001 5.623402e+001 -1.182167e-001 -2.871365e+001 -1.178640e-001 -2.871704e+001 -2.647717e+001 5.641570e+001
138107906.25 -2.634660e+001 5.597089e+001 -1.202117e-001 -2.899985e+001 -1.188126e-001 -2.901394e+001 -2.638091e+001 5.616734e+001
139514109.375 -2.626099e+001 5.572066e+001 -1.211712e-001 -2.929285e+001 -1.191988e-001 -2.927698e+001 -2.630579e+001 5.592015e+001
140920312.5 -2.618729e+001 5.542954e+001 -1.211420e-001 -2.960475e+001 -1.230595e-001 -2.957280e+001 -2.623220e+001 5.565237e+001
142326515.625 -2.610590e+001 5.516266e+001 -1.198587e-001 -2.987014e+001 -1.193034e-001 -2.986599e+001 -2.614957e+001 5.544874e+001
143732718.75 -2.603670e+001 5.492499e+001 -1.223870e-001 -3.017314e+001 -1.226268e-001 -3.016819e+001 -2.608240e+001 5.517908e+001
145138921.875 -2.595104e+001 5.466029e+001 -1.239308e-001 -3.049383e+001 -1.230540e-001 -3.047007e+001 -2.600661e+001 5.489685e+001
146545125 -2.589232e+001 5.435876e+001 -1.263271e-001 -3.074867e+001 -1.233198e-001 -3.074381e+001 -2.592512e+001 5.472088e+001
147951328.125 -2.581878e+001 5.412199e+001 -1.246143e-001 -3.105370e+001 -1.265087e-001 -3.104825e+001 -2.584978e+001 5.438991e+001
149357531.25 -2.573983e+001 5.391189e+001 -1.265149e-001 -3.131594e+001 -1.230560e-001 -3.129824e+001 -2.578380e+001 5.415074e+001
150763734.375 -2.566718e+001 5.366146e+001 -1.260736e-001 -3.160435e+001 -1.274819e-001 -3.160695e+001 -2.572749e+001 5.392589e+001
152169937.5 -2.559193e+001 5.336870e+001 -1.292412e-001 -3.191580e+001 -1.281068e-001 -3.190533e+001 -2.564688e+001 5.367282e+001
153576140.625 -2.552384e+001 5.312526e+001 -1.302723e-001 -3.220921e+001 -1.314394e-001 -3.218118e+001 -2.556697e+001 5.344417e+001
154982343.75 -2.544572e+001 5.285303e+001 -1.316121e-001 -3.250011e+001 -1.315116e-001 -3.248964e+001 -2.548978e+001 5.315162e+001
156388546.875 -2.538327e+001 5.257534e+001 -1.329560e-001 -3.278252e+001 -1.311375e-001 -3.277798e+001 -2.543197e+001 5.290930e+001
157794750 -2.531454e+001 5.228565e+001 -1.346503e-001 -3.308495e+001 -1.331814e-001 -3.305014e+001 -2.536405e+001 5.262391e+001
159200953.125 -2.525489e+001 5.206873e+001 -1.371527e-001 -3.335996e+001 -1.326716e-001 -3.333487e+001 -2.529469e+001 5.236412e+001
160607156.25 -2.518007e+001 5.177728e+001 -1.377999e-001 -3.365228e+001 -1.337396e-001 -3.364034e+001 -2.523317e+001 5.213452e+001
162013359.375 -2.511201e+001 5.157482e+001 -1.378289e-001 -3.393018e+001 -1.314280e-001 -3.394759e+001 -2.515820e+001 5.190270e+001
163419562.5 -2.503628e+001 5.129842e+001 -1.368159e-001 -3.422404e+001 -1.353469e-001 -3.423255e+001 -2.510279e+001 5.159592e+001
164825765.625 -2.497891e+001 5.105652e+001 -1.376215e-001 -3.452705e+001 -1.374046e-001 -3.452061e+001 -2.503199e+001 5.137099e+001
166231968.75 -2.491499e+001 5.074813e+001 -1.381681e-001 -3.481485e+001 -1.388544e-001 -3.480277e+001 -2.496223e+001 5.112634e+001
167638171.875 -2.484952e+001 5.050629e+001 -1.432707e-001 -3.511261e+001 -1.363312e-001 -3.509174e+001 -2.489720e+001 5.082120e+001
169044375 -2.478990e+001 5.026091e+001 -1.416935e-001 -3.538505e+001 -1.409908e-001 -3.540419e+001 -2.484877e+001 5.059969e+001
170450578.125 -2.472328e+001 5.000642e+001 -1.432400e-001 -3.566752e+001 -1.399601e-001 -3.569487e+001 -2.477796e+001 5.035954e+001
171856781.25 -2.466185e+001 4.969028e+001 -1.440915e-001 -3.596084e+001 -1.424768e-001 -3.596998e+001 -2.471132e+001 5.007232e+001
173262984.375 -2.459952e+001 4.946724e+001 -1.434076e-001 -3.626328e+001 -1.434708e-001 -3.625013e+001 -2.465873e+001 4.984827e+001
174669187.5 -2.453369e+001 4.920137e+001 -1.456854e-001 -3.655009e+001 -1.423978e-001 -3.655921e+001 -2.459297e+001 4.961279e+001
176075390.625 -2.447298e+001 4.895590e+001 -1.422351e-001 -3.683272e+001 -1.455214e-001 -3.683007e+001 -2.452990e+001 4.929939e+001
177481593.75 -2.441823e+001 4.868449e+001 -1.458688e-001 -3.712035e+001 -1.465144e-001 -3.713715e+001 -2.448007e+001 4.908955e+001
178887796.875 -2.436100e+001 4.842232e+001 -1.455745e-001 -3.741980e+001 -1.453370e-001 -3.741794e+001 -2.440646e+001 4.880607e+001
180294000 -2.430356e+001 4.815445e+001 -1.484978e-001 -3.769549e+001 -1.474260e-001 -3.770647e+001 -2.436267e+001 4.860414e+001
181700203.125 -2.423705e+001 4.789454e+001 -1.463294e-001 -3.798616e+001 -1.495463e-001 -3.798571e+001 -2.429795e+001 4.835015e+001
183106406.25 -2.418341e+001 4.762822e+001 -1.518525e-001 -3.828011e+001 -1.486048e-001 -3.829449e+001 -2.424544e+001 4.802279e+001
184512609.375 -2.412510e+001 4.739984e+001 -1.533155e-001 -3.858183e+001 -1.525985e-001 -3.855633e+001 -2.418017e+001 4.780084e+001
185918812.5 -2.407141e+001 4.711450e+001 -1.510921e-001 -3.886959e+001 -1.501014e-001 -3.885889e+001 -2.412826e+001 4.755692e+001
187325015.625 -2.401716e+001 4.681325e+001 -1.540632e-001 -3.915922e+001 -1.500117e-001 -3.915710e+001 -2.407206e+001 4.730334e+001
188731218.75 -2.395109e+001 4.654157e+001 -1.548633e-001 -3.942933e+001 -1.533109e-001 -3.944745e+001 -2.401004e+001 4.700312e+001
190137421.875 -2.389803e+001 4.630296e+001 -1.553161e-001 -3.971509e+001 -1.537877e-001 -3.972110e+001 -2.395650e+001 4.674438e+001
191543625 -2.384839e+001 4.607052e+001 -1.557053e-001 -4.002862e+001 -1.565420e-001 -4.002892e+001 -2.390467e+001 4.648913e+001
192949828.125 -2.379575e+001 4.579370e+001 -1.574517e-001 -4.031083e+001 -1.553917e-001 -4.031046e+001 -2.384244e+001 4.622568e+001
194356031.25 -2.374302e+001 4.546082e+001 -1.575937e-001 -4.061213e+001 -1.573904e-001 -4.060366e+001 -2.379255e+001 4.599148e+001
195762234.375 -2.368184e+001 4.524404e+001 -1.570329e-001 -4.091083e+001 -1.566591e-001 -4.088960e+001 -2.374171e+001 4.574158e+001
197168437.5 -2.363171e+001 4.499713e+001 -1.584593e-001 -4.116236e+001 -1.598057e-001 -4.117628e+001 -2.369140e+001 4.542928e+001
198574640.625 -2.357567e+001 4.470787e+001 -1.578864e-001 -4.147988e+001 -1.577192e-001 -4.146710e+001 -2.363874e+001 4.523369e+001
199980843.75 -2.352501e+001 4.446125e+001 -1.585871e-001 -4.176908e+001 -1.614623e-001 -4.175699e+001 -2.358889e+001 4.493595e+001
201387046.875 -2.347315e+001 4.422172e+001 -1.617938e-001 -4.204698e+001 -1.627902e-001 -4.207014e+001 -2.353670e+001 4.465950e+001
202793250 -2.341799e+001 4.391888e+001 -1.619882e-001 -4.233682e+001 -1.614886e-001 -4.233275e+001 -2.347911e+001 4.440827e+001
204199453.125 -2.337352e+001 4.364289e+001 -1.655574e-001 -4.263705e+001 -1.631797e-001 -4.263039e+001 -2.343047e+001 4.414570e+001
205605656.25 -2.332958e+001 4.338024e+001 -1.677967e-001 -4.292793e+001 -1.670914e-001 -4.290056e+001 -2.338799e+001 4.386254e+001
207011859.375 -2.327519e+001 4.309764e+001 -1.649105e-001 -4.321524e+001 -1.628563e-001 -4.321234e+001 -2.333723e+001 4.364445e+001
208418062.5 -2.322474e+001 4.284167e+001 -1.661139e-001 -4.350245e+001 -1.673275e-001 -4.348921e+001 -2.328221e+001 4.340714e+001
