!Agilent Technologies,E8803A,US42160105,A.06.04.32
!Agilent E8803A: A.06.04.32
!Date: Wednesday, April 19, 2023 22:20:21
!Correction: S11(Full 2 Port(1,2)) S21(Full 2 Port(1,2)) S12(Full 2 Port(1,2)) S22(Full 2 Port(1,2)) 
!S2P File: Measurements: S11, S21, S12, S22:
# Hz S  dB   R 50
300000 -5.535437e+001 1.860814e+001 -1.835311e-002 -1.093752e-001 -1.159999e-002 -8.399981e-002 -5.547168e+001 2.272999e+001
1706203.125 -5.334076e+001 2.877785e+001 -1.930768e-002 -4.003720e-001 -1.361835e-002 -4.110686e-001 -5.332636e+001 2.911276e+001
3112406.25 -5.175954e+001 3.956218e+001 -2.106751e-002 -7.221628e-001 -1.440870e-002 -7.231275e-001 -5.176233e+001 3.997892e+001
4518609.375 -5.022724e+001 4.616983e+001 -2.200921e-002 -1.014833e+000 -1.905820e-002 -1.025343e+000 -5.017168e+001 4.720717e+001
5924812.5 -4.882317e+001 5.242396e+001 -1.937572e-002 -1.308254e+000 -2.206371e-002 -1.332435e+000 -4.885311e+001 5.209173e+001
7331015.625 -4.768017e+001 5.662378e+001 -2.640674e-002 -1.625949e+000 -1.983646e-002 -1.617724e+000 -4.761529e+001 5.647657e+001
8737218.75 -4.653505e+001 5.977030e+001 -2.339988e-002 -1.952747e+000 -2.264170e-002 -1.929978e+000 -4.655516e+001 5.976292e+001
10143421.875 -4.574160e+001 6.127234e+001 -2.874073e-002 -2.204750e+000 -2.695752e-002 -2.230757e+000 -4.561899e+001 6.089256e+001
11549625 -4.477092e+001 6.344011e+001 -2.831365e-002 -2.514773e+000 -2.618370e-002 -2.533383e+000 -4.470313e+001 6.325632e+001
12955828.125 -4.391971e+001 6.451437e+001 -2.820845e-002 -2.832264e+000 -2.720828e-002 -2.837899e+000 -4.387625e+001 6.462388e+001
14362031.25 -4.313631e+001 6.631521e+001 -3.229017e-002 -3.152873e+000 -2.876585e-002 -3.133579e+000 -4.312014e+001 6.631281e+001
15768234.375 -4.245961e+001 6.741062e+001 -3.263346e-002 -3.452090e+000 -3.089984e-002 -3.423760e+000 -4.244830e+001 6.715400e+001
17174437.5 -4.182441e+001 6.803438e+001 -3.169675e-002 -3.738942e+000 -3.148058e-002 -3.733216e+000 -4.176510e+001 6.799532e+001
18580640.625 -4.118062e+001 6.913180e+001 -3.592523e-002 -4.040073e+000 -3.174237e-002 -4.056240e+000 -4.118040e+001 6.875251e+001
19986843.75 -4.061776e+001 6.961637e+001 -3.777451e-002 -4.347652e+000 -3.316237e-002 -4.333827e+000 -4.065104e+001 6.918594e+001
21393046.875 -4.009901e+001 6.995485e+001 -3.805329e-002 -4.642099e+000 -3.552151e-002 -4.634407e+000 -4.007999e+001 6.983228e+001
22799250 -3.958738e+001 7.042496e+001 -3.762788e-002 -4.931358e+000 -3.640483e-002 -4.948309e+000 -3.961329e+001 7.040316e+001
24205453.125 -3.911435e+001 7.077274e+001 -3.902299e-002 -5.253304e+000 -3.863936e-002 -5.244889e+000 -3.912582e+001 7.054924e+001
25611656.25 -3.866420e+001 7.103613e+001 -3.848195e-002 -5.524965e+000 -3.844332e-002 -5.556298e+000 -3.864941e+001 7.052747e+001
27017859.375 -3.824605e+001 7.111550e+001 -4.080551e-002 -5.845123e+000 -3.828869e-002 -5.837712e+000 -3.822617e+001 7.114602e+001
28424062.5 -3.782455e+001 7.135448e+001 -4.347451e-002 -6.145323e+000 -4.267681e-002 -6.139048e+000 -3.782006e+001 7.140733e+001
29830265.625 -3.744588e+001 7.151064e+001 -4.188098e-002 -6.418737e+000 -4.044539e-002 -6.433529e+000 -3.744967e+001 7.145865e+001
31236468.75 -3.705953e+001 7.154194e+001 -4.472455e-002 -6.730189e+000 -4.426975e-002 -6.733174e+000 -3.709582e+001 7.161074e+001
32642671.875 -3.669919e+001 7.174207e+001 -4.574182e-002 -7.034641e+000 -4.410710e-002 -7.019535e+000 -3.672244e+001 7.168732e+001
34048875 -3.638403e+001 7.158844e+001 -4.636610e-002 -7.319121e+000 -4.320182e-002 -7.335751e+000 -3.638069e+001 7.152728e+001
35455078.125 -3.604198e+001 7.154090e+001 -4.725933e-002 -7.637712e+000 -4.511454e-002 -7.623473e+000 -3.604643e+001 7.154467e+001
36861281.25 -3.572957e+001 7.160985e+001 -4.873632e-002 -7.919644e+000 -4.767122e-002 -7.910927e+000 -3.572926e+001 7.170316e+001
38267484.375 -3.542934e+001 7.158318e+001 -5.138084e-002 -8.249246e+000 -5.021223e-002 -8.217628e+000 -3.542831e+001 7.150298e+001
39673687.5 -3.514124e+001 7.129972e+001 -5.040026e-002 -8.524374e+000 -4.800923e-002 -8.498262e+000 -3.515871e+001 7.153962e+001
41079890.625 -3.483252e+001 7.140149e+001 -5.278465e-002 -8.796352e+000 -5.028904e-002 -8.824286e+000 -3.487477e+001 7.149050e+001
42486093.75 -3.459384e+001 7.118147e+001 -5.491661e-002 -9.106889e+000 -5.225858e-002 -9.096402e+000 -3.457504e+001 7.139486e+001
43892296.875 -3.430230e+001 7.108600e+001 -5.545468e-002 -9.395638e+000 -4.899936e-002 -9.401417e+000 -3.433267e+001 7.110337e+001
45298500 -3.405927e+001 7.104804e+001 -5.807933e-002 -9.693359e+000 -5.492386e-002 -9.699807e+000 -3.406588e+001 7.110681e+001
46704703.125 -3.381396e+001 7.092093e+001 -5.626467e-002 -1.000769e+001 -5.497021e-002 -9.973207e+000 -3.381719e+001 7.095897e+001
48110906.25 -3.355736e+001 7.074550e+001 -5.836195e-002 -1.029497e+001 -5.326430e-002 -1.028933e+001 -3.358706e+001 7.082510e+001
49517109.375 -3.333573e+001 7.064989e+001 -5.848729e-002 -1.059300e+001 -5.832789e-002 -1.056301e+001 -3.335323e+001 7.063796e+001
50923312.5 -3.310354e+001 7.038998e+001 -5.685487e-002 -1.089987e+001 -5.576024e-002 -1.088645e+001 -3.311415e+001 7.054094e+001
52329515.625 -3.289243e+001 7.021188e+001 -6.215341e-002 -1.119040e+001 -6.019448e-002 -1.118499e+001 -3.290902e+001 7.043515e+001
53735718.75 -3.267137e+001 7.009094e+001 -6.076423e-002 -1.148298e+001 -5.908817e-002 -1.146356e+001 -3.268383e+001 7.022677e+001
55141921.875 -3.246110e+001 6.994219e+001 -6.591380e-002 -1.176832e+001 -6.543215e-002 -1.176471e+001 -3.250811e+001 7.012546e+001
56548125 -3.226051e+001 6.963916e+001 -6.300741e-002 -1.209255e+001 -6.336023e-002 -1.207772e+001 -3.227502e+001 6.975457e+001
57954328.125 -3.205949e+001 6.955268e+001 -6.398434e-002 -1.235754e+001 -6.342889e-002 -1.236955e+001 -3.208695e+001 6.970871e+001
59360531.25 -3.187230e+001 6.937524e+001 -6.745650e-002 -1.265542e+001 -6.369539e-002 -1.264785e+001 -3.188618e+001 6.952739e+001
60766734.375 -3.167992e+001 6.911590e+001 -6.697088e-002 -1.297109e+001 -6.644541e-002 -1.295447e+001 -3.168340e+001 6.938341e+001
62172937.5 -3.148817e+001 6.897020e+001 -6.785762e-002 -1.325862e+001 -6.698949e-002 -1.323449e+001 -3.151270e+001 6.915269e+001
63579140.625 -3.131367e+001 6.876594e+001 -6.828641e-002 -1.355867e+001 -6.646533e-002 -1.355012e+001 -3.133338e+001 6.902428e+001
64985343.75 -3.113773e+001 6.850829e+001 -7.172722e-002 -1.385178e+001 -6.705973e-002 -1.384094e+001 -3.114104e+001 6.873433e+001
66391546.875 -3.096201e+001 6.833663e+001 -6.987291e-002 -1.413913e+001 -7.155075e-002 -1.412693e+001 -3.098041e+001 6.858775e+001
67797750 -3.078758e+001 6.813756e+001 -7.016033e-002 -1.442555e+001 -7.207263e-002 -1.441379e+001 -3.082194e+001 6.834138e+001
69203953.125 -3.063541e+001 6.789040e+001 -7.488079e-002 -1.472693e+001 -7.324398e-002 -1.472083e+001 -3.064639e+001 6.813567e+001
70610156.25 -3.046847e+001 6.771857e+001 -7.556444e-002 -1.501927e+001 -7.330786e-002 -1.500952e+001 -3.049261e+001 6.788198e+001
72016359.375 -3.031120e+001 6.750200e+001 -7.611841e-002 -1.530219e+001 -7.678644e-002 -1.530650e+001 -3.033652e+001 6.776499e+001
73422562.5 -3.016285e+001 6.726129e+001 -7.931110e-002 -1.563318e+001 -7.752163e-002 -1.559863e+001 -3.017785e+001 6.751780e+001
74828765.625 -3.000329e+001 6.698959e+001 -7.714717e-002 -1.590377e+001 -7.674550e-002 -1.589802e+001 -3.003603e+001 6.727618e+001
76234968.75 -2.985293e+001 6.677177e+001 -7.925321e-002 -1.619825e+001 -7.776126e-002 -1.620728e+001 -2.987462e+001 6.707368e+001
77641171.875 -2.970715e+001 6.652795e+001 -8.243722e-002 -1.648624e+001 -8.093253e-002 -1.648558e+001 -2.972852e+001 6.680856e+001
79047375 -2.956298e+001 6.634718e+001 -8.047948e-002 -1.677476e+001 -7.863679e-002 -1.678247e+001 -2.958941e+001 6.661501e+001
80453578.125 -2.941961e+001 6.616002e+001 -8.338373e-002 -1.706236e+001 -8.333488e-002 -1.707556e+001 -2.944353e+001 6.639545e+001
81859781.25 -2.927906e+001 6.585065e+001 -8.318814e-002 -1.737722e+001 -8.217219e-002 -1.737710e+001 -2.931077e+001 6.625014e+001
83265984.375 -2.913339e+001 6.560870e+001 -8.425257e-002 -1.765808e+001 -8.514628e-002 -1.765478e+001 -2.917323e+001 6.589169e+001
84672187.5 -2.902085e+001 6.538820e+001 -8.695440e-002 -1.794728e+001 -8.585756e-002 -1.795419e+001 -2.903934e+001 6.577306e+001
86078390.625 -2.887490e+001 6.507457e+001 -8.549821e-002 -1.824966e+001 -8.559360e-002 -1.825031e+001 -2.890517e+001 6.545636e+001
87484593.75 -2.874881e+001 6.492262e+001 -8.453558e-002 -1.853574e+001 -8.721458e-002 -1.853446e+001 -2.878028e+001 6.529435e+001
88890796.875 -2.862364e+001 6.461852e+001 -8.837143e-002 -1.884205e+001 -8.904161e-002 -1.883930e+001 -2.864732e+001 6.502451e+001
90297000 -2.850898e+001 6.441964e+001 -9.097421e-002 -1.913884e+001 -8.671039e-002 -1.912962e+001 -2.852944e+001 6.472715e+001
91703203.125 -2.837668e+001 6.411269e+001 -9.067002e-002 -1.943186e+001 -8.787027e-002 -1.943124e+001 -2.839920e+001 6.453615e+001
93109406.25 -2.825384e+001 6.399984e+001 -9.462076e-002 -1.970429e+001 -9.302011e-002 -1.971901e+001 -2.828887e+001 6.430342e+001
94515609.375 -2.813156e+001 6.368044e+001 -9.058935e-002 -2.000563e+001 -9.351560e-002 -2.003009e+001 -2.816422e+001 6.402603e+001
95921812.5 -2.802070e+001 6.349213e+001 -9.442083e-002 -2.029715e+001 -9.142052e-002 -2.030458e+001 -2.803995e+001 6.383358e+001
97328015.625 -2.790545e+001 6.324664e+001 -9.602794e-002 -2.058044e+001 -9.246819e-002 -2.059818e+001 -2.793840e+001 6.354977e+001
98734218.75 -2.778867e+001 6.299403e+001 -9.575990e-002 -2.088140e+001 -9.457150e-002 -2.088664e+001 -2.782162e+001 6.330181e+001
100140421.875 -2.766629e+001 6.278791e+001 -9.762616e-002 -2.117302e+001 -9.455242e-002 -2.119616e+001 -2.769775e+001 6.312886e+001
101546625 -2.756953e+001 6.248133e+001 -9.915177e-002 -2.147575e+001 -1.007886e-001 -2.147689e+001 -2.759941e+001 6.285386e+001
102952828.125 -2.745719e+001 6.224667e+001 -9.807847e-002 -2.175081e+001 -9.886725e-002 -2.176421e+001 -2.748976e+001 6.255831e+001
104359031.25 -2.735329e+001 6.201078e+001 -9.854817e-002 -2.207631e+001 -9.694697e-002 -2.206129e+001 -2.738704e+001 6.231010e+001
105765234.375 -2.724350e+001 6.179013e+001 -1.012098e-001 -2.234727e+001 -1.010779e-001 -2.234969e+001 -2.727210e+001 6.211293e+001
107171437.5 -2.714658e+001 6.150770e+001 -1.060563e-001 -2.264543e+001 -1.030796e-001 -2.265520e+001 -2.717093e+001 6.185320e+001
108577640.625 -2.703644e+001 6.119380e+001 -1.037418e-001 -2.292868e+001 -1.030069e-001 -2.292359e+001 -2.706240e+001 6.164112e+001
109983843.75 -2.694218e+001 6.100002e+001 -1.076757e-001 -2.322610e+001 -1.036720e-001 -2.322287e+001 -2.696377e+001 6.132148e+001
111390046.875 -2.684195e+001 6.065464e+001 -1.068768e-001 -2.353034e+001 -1.047165e-001 -2.352146e+001 -2.686539e+001 6.114245e+001
112796250 -2.675101e+001 6.049873e+001 -1.100258e-001 -2.380998e+001 -1.046990e-001 -2.380304e+001 -2.676438e+001 6.085902e+001
114202453.125 -2.664836e+001 6.028347e+001 -1.100951e-001 -2.411023e+001 -1.076185e-001 -2.409333e+001 -2.667883e+001 6.064822e+001
115608656.25 -2.654633e+001 5.996988e+001 -1.098130e-001 -2.437325e+001 -1.063709e-001 -2.437981e+001 -2.658315e+001 6.039347e+001
117014859.375 -2.646358e+001 5.980528e+001 -1.127206e-001 -2.468618e+001 -1.116701e-001 -2.469120e+001 -2.648340e+001 6.001011e+001
118421062.5 -2.636112e+001 5.948963e+001 -1.108348e-001 -2.499725e+001 -1.095368e-001 -2.499887e+001 -2.638916e+001 5.978213e+001
119827265.625 -2.627465e+001 5.919276e+001 -1.137518e-001 -2.526569e+001 -1.101427e-001 -2.527657e+001 -2.630145e+001 5.955825e+001
121233468.75 -2.618146e+001 5.891323e+001 -1.141952e-001 -2.557781e+001 -1.118547e-001 -2.556408e+001 -2.621168e+001 5.931353e+001
122639671.875 -2.608869e+001 5.873761e+001 -1.151127e-001 -2.586394e+001 -1.131721e-001 -2.584005e+001 -2.612660e+001 5.899884e+001
124045875 -2.599862e+001 5.843975e+001 -1.163047e-001 -2.615188e+001 -1.143152e-001 -2.613569e+001 -2.603485e+001 5.884654e+001
125452078.125 -2.591914e+001 5.818967e+001 -1.169243e-001 -2.643696e+001 -1.143760e-001 -2.643338e+001 -2.595080e+001 5.852489e+001
126858281.25 -2.583381e+001 5.794577e+001 -1.188661e-001 -2.672203e+001 -1.153173e-001 -2.672018e+001 -2.586403e+001 5.828736e+001
128264484.375 -2.574574e+001 5.768619e+001 -1.190552e-001 -2.704058e+001 -1.169679e-001 -2.704612e+001 -2.577281e+001 5.800618e+001
129670687.5 -2.566164e+001 5.742878e+001 -1.198908e-001 -2.732037e+001 -1.181954e-001 -2.733102e+001 -2.568505e+001 5.776328e+001
131076890.625 -2.558348e+001 5.719467e+001 -1.196149e-001 -2.762259e+001 -1.213460e-001 -2.759127e+001 -2.561558e+001 5.747413e+001
132483093.75 -2.549232e+001 5.691045e+001 -1.214855e-001 -2.789692e+001 -1.233440e-001 -2.789332e+001 -2.552922e+001 5.725394e+001
133889296.875 -2.541881e+001 5.666130e+001 -1.245286e-001 -2.820362e+001 -1.223406e-001 -2.819239e+001 -2.545339e+001 5.697202e+001
135295500 -2.533314e+001 5.645111e+001 -1.227066e-001 -2.846450e+001 -1.241705e-001 -2.846431e+001 -2.537842e+001 5.676818e+001
136701703.125 -2.525799e+001 5.614175e+001 -1.260453e-001 -2.878589e+001 -1.231030e-001 -2.877995e+001 -2.529296e+001 5.647040e+001
138107906.25 -2.518073e+001 5.587838e+001 -1.259541e-001 -2.908385e+001 -1.273672e-001 -2.906956e+001 -2.520931e+001 5.623941e+001
139514109.375 -2.509399e+001 5.563110e+001 -1.263967e-001 -2.935491e+001 -1.289854e-001 -2.934660e+001 -2.513895e+001 5.591478e+001
140920312.5 -2.502824e+001 5.535786e+001 -1.290246e-001 -2.965256e+001 -1.260973e-001 -2.963580e+001 -2.505386e+001 5.567381e+001
142326515.625 -2.494838e+001 5.504575e+001 -1.275739e-001 -2.994513e+001 -1.252568e-001 -2.994133e+001 -2.497612e+001 5.540437e+001
143732718.75 -2.487312e+001 5.486339e+001 -1.298961e-001 -3.024291e+001 -1.299777e-001 -3.022794e+001 -2.491436e+001 5.514888e+001
145138921.875 -2.480006e+001 5.460456e+001 -1.306193e-001 -3.054777e+001 -1.289856e-001 -3.054081e+001 -2.483451e+001 5.489503e+001
146545125 -2.472903e+001 5.434898e+001 -1.310448e-001 -3.080690e+001 -1.333379e-001 -3.080748e+001 -2.475436e+001 5.467654e+001
147951328.125 -2.465763e+001 5.406736e+001 -1.316109e-001 -3.111257e+001 -1.353271e-001 -3.110294e+001 -2.468458e+001 5.440461e+001
149357531.25 -2.458783e+001 5.380027e+001 -1.348565e-001 -3.137602e+001 -1.319687e-001 -3.137711e+001 -2.461755e+001 5.416473e+001
150763734.375 -2.452083e+001 5.355136e+001 -1.347645e-001 -3.166238e+001 -1.341303e-001 -3.168808e+001 -2.455971e+001 5.387628e+001
152169937.5 -2.444516e+001 5.328122e+001 -1.366985e-001 -3.197672e+001 -1.380530e-001 -3.198651e+001 -2.448462e+001 5.363531e+001
153576140.625 -2.437253e+001 5.304687e+001 -1.377763e-001 -3.225993e+001 -1.391548e-001 -3.225603e+001 -2.441068e+001 5.342068e+001
154982343.75 -2.429645e+001 5.277607e+001 -1.379798e-001 -3.256019e+001 -1.402113e-001 -3.256842e+001 -2.433322e+001 5.310794e+001
156388546.875 -2.424119e+001 5.245634e+001 -1.367649e-001 -3.285981e+001 -1.392262e-001 -3.283419e+001 -2.427939e+001 5.287312e+001
157794750 -2.417118e+001 5.220597e+001 -1.410816e-001 -3.313617e+001 -1.412375e-001 -3.312565e+001 -2.420322e+001 5.260952e+001
159200953.125 -2.411206e+001 5.194292e+001 -1.444720e-001 -3.341839e+001 -1.417007e-001 -3.341246e+001 -2.413860e+001 5.233946e+001
160607156.25 -2.403987e+001 5.168295e+001 -1.441412e-001 -3.370531e+001 -1.416009e-001 -3.370647e+001 -2.407649e+001 5.209873e+001
162013359.375 -2.396922e+001 5.145305e+001 -1.450330e-001 -3.399033e+001 -1.410445e-001 -3.399842e+001 -2.400422e+001 5.182055e+001
163419562.5 -2.390746e+001 5.120049e+001 -1.456229e-001 -3.428053e+001 -1.459245e-001 -3.429197e+001 -2.394895e+001 5.156387e+001
164825765.625 -2.384309e+001 5.093443e+001 -1.439695e-001 -3.459509e+001 -1.450443e-001 -3.457952e+001 -2.387982e+001 5.133712e+001
166231968.75 -2.378203e+001 5.066411e+001 -1.465107e-001 -3.487069e+001 -1.461451e-001 -3.487191e+001 -2.381979e+001 5.104359e+001
167638171.875 -2.371660e+001 5.040526e+001 -1.491939e-001 -3.516006e+001 -1.448509e-001 -3.513884e+001 -2.375514e+001 5.074585e+001
169044375 -2.365753e+001 5.012374e+001 -1.524335e-001 -3.545547e+001 -1.477748e-001 -3.546218e+001 -2.369587e+001 5.053866e+001
170450578.125 -2.359696e+001 4.988584e+001 -1.502100e-001 -3.573672e+001 -1.498407e-001 -3.574851e+001 -2.363517e+001 5.030158e+001
171856781.25 -2.353821e+001 4.954682e+001 -1.507275e-001 -3.603188e+001 -1.512655e-001 -3.603224e+001 -2.356993e+001 5.001559e+001
173262984.375 -2.347632e+001 4.933271e+001 -1.523414e-001 -3.631155e+001 -1.514334e-001 -3.630375e+001 -2.351565e+001 4.979478e+001
174669187.5 -2.341276e+001 4.905429e+001 -1.534229e-001 -3.661974e+001 -1.523129e-001 -3.662202e+001 -2.345814e+001 4.954300e+001
176075390.625 -2.335396e+001 4.881624e+001 -1.514152e-001 -3.689376e+001 -1.554603e-001 -3.689716e+001 -2.339427e+001 4.925717e+001
177481593.75 -2.329931e+001 4.854216e+001 -1.546752e-001 -3.719713e+001 -1.533110e-001 -3.717931e+001 -2.333327e+001 4.898536e+001
178887796.875 -2.324242e+001 4.831168e+001 -1.536448e-001 -3.748051e+001 -1.552103e-001 -3.747618e+001 -2.327382e+001 4.872785e+001
180294000 -2.319078e+001 4.800214e+001 -1.579465e-001 -3.774338e+001 -1.568704e-001 -3.777191e+001 -2.323239e+001 4.852964e+001
181700203.125 -2.312475e+001 4.777835e+001 -1.542103e-001 -3.804798e+001 -1.586945e-001 -3.806287e+001 -2.316508e+001 4.822555e+001
183106406.25 -2.307443e+001 4.748344e+001 -1.629198e-001 -3.835192e+001 -1.589741e-001 -3.834109e+001 -2.311228e+001 4.796516e+001
184512609.375 -2.301747e+001 4.723198e+001 -1.620214e-001 -3.863363e+001 -1.621097e-001 -3.862091e+001 -2.305500e+001 4.771244e+001
185918812.5 -2.296531e+001 4.695148e+001 -1.611704e-001 -3.893129e+001 -1.598558e-001 -3.892579e+001 -2.300126e+001 4.746213e+001
187325015.625 -2.291575e+001 4.667430e+001 -1.637590e-001 -3.921848e+001 -1.593022e-001 -3.920784e+001 -2.294687e+001 4.719839e+001
188731218.75 -2.285028e+001 4.637845e+001 -1.631316e-001 -3.949636e+001 -1.634343e-001 -3.950279e+001 -2.288711e+001 4.690983e+001
190137421.875 -2.280507e+001 4.615000e+001 -1.653530e-001 -3.977889e+001 -1.651507e-001 -3.977230e+001 -2.283904e+001 4.666003e+001
191543625 -2.274505e+001 4.589676e+001 -1.645760e-001 -4.008521e+001 -1.668199e-001 -4.008183e+001 -2.279184e+001 4.638156e+001
192949828.125 -2.270517e+001 4.563269e+001 -1.664180e-001 -4.037690e+001 -1.666139e-001 -4.036269e+001 -2.272446e+001 4.614796e+001
194356031.25 -2.264753e+001 4.532655e+001 -1.662861e-001 -4.066182e+001 -1.673012e-001 -4.065938e+001 -2.267857e+001 4.591482e+001
195762234.375 -2.258792e+001 4.511224e+001 -1.656695e-001 -4.095594e+001 -1.679909e-001 -4.094095e+001 -2.262937e+001 4.564447e+001
197168437.5 -2.254364e+001 4.480277e+001 -1.688940e-001 -4.121555e+001 -1.713760e-001 -4.123958e+001 -2.257968e+001 4.538129e+001
198574640.625 -2.249002e+001 4.450110e+001 -1.689578e-001 -4.153022e+001 -1.687564e-001 -4.152609e+001 -2.253068e+001 4.511952e+001
199980843.75 -2.243864e+001 4.430407e+001 -1.688401e-001 -4.182011e+001 -1.722811e-001 -4.179725e+001 -2.248164e+001 4.487250e+001
201387046.875 -2.239006e+001 4.402177e+001 -1.721810e-001 -4.211703e+001 -1.736921e-001 -4.211371e+001 -2.243271e+001 4.457634e+001
202793250 -2.233805e+001 4.376324e+001 -1.741211e-001 -4.239706e+001 -1.715017e-001 -4.241306e+001 -2.237601e+001 4.429009e+001
204199453.125 -2.229559e+001 4.349266e+001 -1.774238e-001 -4.270097e+001 -1.765781e-001 -4.269637e+001 -2.233922e+001 4.406585e+001
205605656.25 -2.224509e+001 4.319578e+001 -1.773610e-001 -4.298266e+001 -1.749748e-001 -4.297843e+001 -2.228485e+001 4.380389e+001
207011859.375 -2.219747e+001 4.294045e+001 -1.758291e-001 -4.325656e+001 -1.740589e-001 -4.326753e+001 -2.223321e+001 4.357939e+001
208418062.5 -2.215821e+001 4.268699e+001 -1.791295e-001 -4.355302e+001 -1.773252e-001 -4.354215e+001 -2.218437e+001 4.333294e+001
