!Agilent Technologies,E8803A,US42160105,A.06.04.32
!Agilent E8803A: A.06.04.32
!Date: Wednesday, April 19, 2023 22:25:42
!Correction: S11(Full 2 Port(1,2)) S21(Full 2 Port(1,2)) S12(Full 2 Port(1,2)) S22(Full 2 Port(1,2)) 
!S2P File: Measurements: S11, S21, S12, S22:
# Hz S  dB   R 50
300000 -5.556227e+001 1.684372e+001 -1.692775e-002 -1.284479e-001 -1.290480e-002 -7.983550e-002 -5.522334e+001 2.529182e+001
1706203.125 -5.426273e+001 1.124411e+001 -1.938447e-002 -4.237009e-001 -1.601407e-002 -4.258504e-001 -5.440757e+001 1.151405e+001
3112406.25 -5.379502e+001 1.267024e+001 -1.774142e-002 -7.596514e-001 -1.599742e-002 -7.575299e-001 -5.389169e+001 1.406863e+001
4518609.375 -5.338957e+001 1.472398e+001 -1.948829e-002 -1.069025e+000 -1.902152e-002 -1.066717e+000 -5.338050e+001 1.560423e+001
5924812.5 -5.312785e+001 1.650027e+001 -2.023203e-002 -1.389145e+000 -2.376814e-002 -1.401255e+000 -5.305973e+001 1.672619e+001
7331015.625 -5.289288e+001 1.812537e+001 -2.474066e-002 -1.731331e+000 -1.914162e-002 -1.705376e+000 -5.277121e+001 1.799673e+001
8737218.75 -5.259381e+001 1.982948e+001 -2.355805e-002 -2.076693e+000 -2.108601e-002 -2.027213e+000 -5.255705e+001 2.006817e+001
10143421.875 -5.242886e+001 1.952981e+001 -2.609703e-002 -2.322568e+000 -2.773015e-002 -2.349623e+000 -5.238120e+001 2.076719e+001
11549625 -5.224446e+001 2.148007e+001 -2.931629e-002 -2.635103e+000 -2.702295e-002 -2.667002e+000 -5.215643e+001 2.159034e+001
12955828.125 -5.185919e+001 2.289318e+001 -2.959396e-002 -2.978494e+000 -3.028303e-002 -2.990369e+000 -5.186514e+001 2.359386e+001
14362031.25 -5.165918e+001 2.494186e+001 -3.348617e-002 -3.317683e+000 -3.034711e-002 -3.307238e+000 -5.162167e+001 2.477283e+001
15768234.375 -5.155855e+001 2.595333e+001 -3.411318e-002 -3.621164e+000 -3.136470e-002 -3.610963e+000 -5.149410e+001 2.558155e+001
17174437.5 -5.126088e+001 2.645787e+001 -3.468454e-002 -3.947063e+000 -3.374829e-002 -3.947313e+000 -5.120130e+001 2.656160e+001
18580640.625 -5.107501e+001 2.829985e+001 -3.481758e-002 -4.275928e+000 -3.356363e-002 -4.292854e+000 -5.093906e+001 2.760333e+001
19986843.75 -5.088887e+001 2.904880e+001 -3.702072e-002 -4.591407e+000 -3.289213e-002 -4.572485e+000 -5.079245e+001 2.961496e+001
21393046.875 -5.061904e+001 3.007568e+001 -3.556147e-002 -4.895240e+000 -3.865804e-002 -4.883651e+000 -5.054195e+001 2.994056e+001
22799250 -5.052080e+001 3.119883e+001 -3.699155e-002 -5.214287e+000 -3.823584e-002 -5.215151e+000 -5.047974e+001 3.077483e+001
24205453.125 -5.029163e+001 3.165895e+001 -4.056435e-002 -5.524203e+000 -3.801922e-002 -5.546397e+000 -5.026056e+001 3.157223e+001
25611656.25 -5.006386e+001 3.284344e+001 -4.101389e-002 -5.833672e+000 -4.004574e-002 -5.867924e+000 -4.999873e+001 3.237197e+001
27017859.375 -4.981676e+001 3.358150e+001 -4.225124e-002 -6.176394e+000 -4.096529e-002 -6.169363e+000 -4.981234e+001 3.312534e+001
28424062.5 -4.958996e+001 3.404644e+001 -4.397565e-002 -6.483085e+000 -4.278262e-002 -6.481603e+000 -4.963448e+001 3.455795e+001
29830265.625 -4.946727e+001 3.461018e+001 -4.372869e-002 -6.804829e+000 -4.093802e-002 -6.807068e+000 -4.945580e+001 3.503804e+001
31236468.75 -4.915575e+001 3.519748e+001 -4.434696e-002 -7.102261e+000 -4.430403e-002 -7.104784e+000 -4.930106e+001 3.554060e+001
32642671.875 -4.902738e+001 3.633628e+001 -4.664146e-002 -7.438763e+000 -4.485116e-002 -7.426927e+000 -4.909817e+001 3.639975e+001
34048875 -4.883590e+001 3.609310e+001 -4.607383e-002 -7.760653e+000 -4.411937e-002 -7.719803e+000 -4.877822e+001 3.627434e+001
35455078.125 -4.861383e+001 3.717211e+001 -4.776345e-002 -8.068363e+000 -4.586341e-002 -8.061882e+000 -4.868830e+001 3.691205e+001
36861281.25 -4.849766e+001 3.717929e+001 -4.920733e-002 -8.372583e+000 -4.682655e-002 -8.372194e+000 -4.853880e+001 3.779551e+001
38267484.375 -4.824913e+001 3.767149e+001 -5.021486e-002 -8.724551e+000 -4.972097e-002 -8.702456e+000 -4.832631e+001 3.759964e+001
39673687.5 -4.810183e+001 3.782887e+001 -5.128299e-002 -9.006319e+000 -4.865743e-002 -8.992007e+000 -4.815646e+001 3.842318e+001
41079890.625 -4.789647e+001 3.883130e+001 -5.203635e-002 -9.312205e+000 -5.037754e-002 -9.325808e+000 -4.808031e+001 3.895539e+001
42486093.75 -4.773584e+001 3.869349e+001 -5.638782e-002 -9.644722e+000 -5.255080e-002 -9.634933e+000 -4.778382e+001 3.952435e+001
43892296.875 -4.760332e+001 3.867722e+001 -5.675748e-002 -9.947645e+000 -4.868079e-002 -9.939152e+000 -4.759408e+001 3.878953e+001
45298500 -4.742820e+001 3.917769e+001 -5.705362e-002 -1.024549e+001 -5.427955e-002 -1.026167e+001 -4.749254e+001 3.984686e+001
46704703.125 -4.731295e+001 3.927200e+001 -5.753465e-002 -1.057744e+001 -5.491911e-002 -1.056635e+001 -4.730404e+001 3.984739e+001
48110906.25 -4.703588e+001 3.969697e+001 -5.719242e-002 -1.090836e+001 -5.310542e-002 -1.088315e+001 -4.713834e+001 3.992029e+001
49517109.375 -4.683490e+001 4.007644e+001 -5.764958e-002 -1.122191e+001 -5.889710e-002 -1.120207e+001 -4.698713e+001 4.047255e+001
50923312.5 -4.668586e+001 4.017844e+001 -5.953082e-002 -1.152026e+001 -5.736204e-002 -1.150603e+001 -4.680035e+001 4.034337e+001
52329515.625 -4.660118e+001 4.003466e+001 -6.223517e-002 -1.184104e+001 -5.847560e-002 -1.181563e+001 -4.673065e+001 4.057049e+001
53735718.75 -4.646146e+001 4.054806e+001 -6.400539e-002 -1.214185e+001 -5.960599e-002 -1.213096e+001 -4.658269e+001 4.093520e+001
55141921.875 -4.626454e+001 4.033928e+001 -6.628439e-002 -1.243992e+001 -6.313175e-002 -1.245466e+001 -4.657320e+001 4.070695e+001
56548125 -4.607025e+001 4.042403e+001 -6.328326e-002 -1.279532e+001 -6.177035e-002 -1.277754e+001 -4.628576e+001 4.122340e+001
57954328.125 -4.598529e+001 4.075100e+001 -6.557767e-002 -1.308941e+001 -6.187293e-002 -1.309626e+001 -4.614204e+001 4.127555e+001
59360531.25 -4.587014e+001 4.087327e+001 -6.761236e-002 -1.339528e+001 -6.307972e-002 -1.336695e+001 -4.594418e+001 4.182111e+001
60766734.375 -4.562645e+001 4.079799e+001 -6.601924e-002 -1.373391e+001 -6.680810e-002 -1.371212e+001 -4.584909e+001 4.142842e+001
62172937.5 -4.549709e+001 4.113379e+001 -6.750550e-002 -1.402065e+001 -6.930006e-002 -1.401053e+001 -4.564117e+001 4.202965e+001
63579140.625 -4.536428e+001 4.132403e+001 -6.840377e-002 -1.433187e+001 -6.568558e-002 -1.433309e+001 -4.563295e+001 4.201190e+001
64985343.75 -4.525532e+001 4.100085e+001 -6.752512e-002 -1.464586e+001 -7.019982e-002 -1.463378e+001 -4.538703e+001 4.211703e+001
66391546.875 -4.513607e+001 4.100170e+001 -6.936664e-002 -1.496199e+001 -7.139549e-002 -1.494975e+001 -4.531668e+001 4.203429e+001
67797750 -4.499714e+001 4.130060e+001 -6.994736e-002 -1.525142e+001 -7.206973e-002 -1.528620e+001 -4.520566e+001 4.185079e+001
69203953.125 -4.486662e+001 4.123232e+001 -7.065815e-002 -1.559282e+001 -7.422350e-002 -1.558848e+001 -4.502407e+001 4.260209e+001
70610156.25 -4.472525e+001 4.149119e+001 -7.359143e-002 -1.589361e+001 -7.549940e-002 -1.588159e+001 -4.485097e+001 4.250297e+001
72016359.375 -4.459962e+001 4.201969e+001 -7.489548e-002 -1.620543e+001 -7.558379e-002 -1.619927e+001 -4.479726e+001 4.277895e+001
73422562.5 -4.442745e+001 4.135504e+001 -7.539929e-002 -1.651767e+001 -7.840233e-002 -1.651657e+001 -4.465715e+001 4.227084e+001
74828765.625 -4.427158e+001 4.127363e+001 -7.723296e-002 -1.682635e+001 -7.555841e-002 -1.684867e+001 -4.451036e+001 4.249563e+001
76234968.75 -4.417903e+001 4.148906e+001 -7.640100e-002 -1.714561e+001 -7.896914e-002 -1.714680e+001 -4.433399e+001 4.284720e+001
77641171.875 -4.400432e+001 4.127740e+001 -8.106622e-002 -1.745056e+001 -7.985700e-002 -1.744708e+001 -4.419746e+001 4.266753e+001
79047375 -4.388710e+001 4.150706e+001 -7.906673e-002 -1.774998e+001 -7.880836e-002 -1.775871e+001 -4.411984e+001 4.270386e+001
80453578.125 -4.383303e+001 4.150838e+001 -8.010054e-002 -1.807179e+001 -8.267210e-002 -1.807300e+001 -4.398507e+001 4.296237e+001
81859781.25 -4.369791e+001 4.160324e+001 -8.254446e-002 -1.839418e+001 -7.845154e-002 -1.840310e+001 -4.388396e+001 4.289402e+001
83265984.375 -4.348296e+001 4.127340e+001 -8.142284e-002 -1.868184e+001 -8.369873e-002 -1.871139e+001 -4.372615e+001 4.305167e+001
84672187.5 -4.338224e+001 4.123447e+001 -8.391727e-002 -1.900735e+001 -8.207244e-002 -1.901214e+001 -4.361524e+001 4.295832e+001
86078390.625 -4.322564e+001 4.100497e+001 -8.478953e-002 -1.931934e+001 -8.511985e-002 -1.932260e+001 -4.352084e+001 4.289331e+001
87484593.75 -4.308123e+001 4.142820e+001 -8.149187e-002 -1.962314e+001 -8.539070e-002 -1.962305e+001 -4.338631e+001 4.285900e+001
88890796.875 -4.298295e+001 4.169978e+001 -8.789092e-002 -1.993375e+001 -8.468445e-002 -1.995178e+001 -4.324268e+001 4.317339e+001
90297000 -4.288373e+001 4.125250e+001 -8.589136e-002 -2.026603e+001 -8.635025e-002 -2.025270e+001 -4.307705e+001 4.319953e+001
91703203.125 -4.275057e+001 4.138482e+001 -8.927572e-002 -2.057804e+001 -8.499984e-002 -2.055524e+001 -4.295578e+001 4.293702e+001
93109406.25 -4.264250e+001 4.143182e+001 -8.897190e-002 -2.087881e+001 -8.810873e-002 -2.089179e+001 -4.292632e+001 4.332534e+001
94515609.375 -4.252229e+001 4.161051e+001 -8.888049e-002 -2.119127e+001 -9.106198e-002 -2.120197e+001 -4.272641e+001 4.293949e+001
95921812.5 -4.239346e+001 4.144656e+001 -8.920519e-002 -2.148993e+001 -8.966959e-002 -2.149612e+001 -4.257612e+001 4.304852e+001
97328015.625 -4.229202e+001 4.130148e+001 -9.207640e-002 -2.179995e+001 -9.093960e-002 -2.182377e+001 -4.253178e+001 4.323664e+001
98734218.75 -4.213492e+001 4.133454e+001 -9.358911e-002 -2.211322e+001 -9.012563e-002 -2.210299e+001 -4.239392e+001 4.306112e+001
100140421.875 -4.201152e+001 4.141095e+001 -9.223096e-002 -2.243131e+001 -9.318638e-002 -2.245799e+001 -4.224406e+001 4.348531e+001
101546625 -4.191236e+001 4.124022e+001 -9.412180e-002 -2.273559e+001 -9.429437e-002 -2.272569e+001 -4.213154e+001 4.301162e+001
102952828.125 -4.182102e+001 4.132376e+001 -9.662523e-002 -2.304135e+001 -9.451840e-002 -2.305422e+001 -4.202268e+001 4.301351e+001
104359031.25 -4.173592e+001 4.117072e+001 -9.365214e-002 -2.338464e+001 -9.491844e-002 -2.336047e+001 -4.187765e+001 4.296514e+001
105765234.375 -4.156554e+001 4.124491e+001 -9.543977e-002 -2.368852e+001 -9.559757e-002 -2.368467e+001 -4.175119e+001 4.289494e+001
107171437.5 -4.148339e+001 4.110221e+001 -1.007161e-001 -2.399657e+001 -9.801769e-002 -2.397704e+001 -4.167244e+001 4.276769e+001
108577640.625 -4.131573e+001 4.064182e+001 -1.008771e-001 -2.429110e+001 -9.929783e-002 -2.428096e+001 -4.153785e+001 4.318085e+001
109983843.75 -4.123114e+001 4.113137e+001 -9.965495e-002 -2.460626e+001 -9.800173e-002 -2.460845e+001 -4.136063e+001 4.302431e+001
111390046.875 -4.109733e+001 4.098777e+001 -1.021186e-001 -2.491413e+001 -9.947129e-002 -2.493299e+001 -4.127013e+001 4.340934e+001
112796250 -4.095059e+001 4.097579e+001 -1.025531e-001 -2.522191e+001 -1.021861e-001 -2.521905e+001 -4.115973e+001 4.282905e+001
114202453.125 -4.086630e+001 4.112475e+001 -1.021773e-001 -2.553700e+001 -1.015317e-001 -2.552653e+001 -4.103470e+001 4.304678e+001
115608656.25 -4.071219e+001 4.074310e+001 -1.059974e-001 -2.582970e+001 -1.017062e-001 -2.583914e+001 -4.092159e+001 4.310374e+001
117014859.375 -4.064624e+001 4.116430e+001 -1.072544e-001 -2.615915e+001 -1.054478e-001 -2.615171e+001 -4.074314e+001 4.266344e+001
118421062.5 -4.050216e+001 4.082239e+001 -1.075937e-001 -2.648588e+001 -1.053001e-001 -2.646611e+001 -4.068021e+001 4.260317e+001
119827265.625 -4.037473e+001 4.041994e+001 -1.068203e-001 -2.678836e+001 -1.040148e-001 -2.678299e+001 -4.053535e+001 4.282115e+001
121233468.75 -4.026038e+001 4.051383e+001 -1.077603e-001 -2.708017e+001 -1.100884e-001 -2.708724e+001 -4.046944e+001 4.269951e+001
122639671.875 -4.015459e+001 4.059116e+001 -1.089362e-001 -2.741347e+001 -1.091159e-001 -2.739471e+001 -4.034919e+001 4.219156e+001
124045875 -3.995224e+001 4.069601e+001 -1.067885e-001 -2.770804e+001 -1.088417e-001 -2.768093e+001 -4.018858e+001 4.289878e+001
125452078.125 -3.987378e+001 4.071881e+001 -1.114210e-001 -2.802412e+001 -1.074755e-001 -2.801807e+001 -4.004884e+001 4.218969e+001
126858281.25 -3.975945e+001 4.055690e+001 -1.102110e-001 -2.831536e+001 -1.096424e-001 -2.831253e+001 -3.994188e+001 4.226371e+001
128264484.375 -3.965001e+001 4.048661e+001 -1.124149e-001 -2.865882e+001 -1.103129e-001 -2.864674e+001 -3.978196e+001 4.190791e+001
129670687.5 -3.955568e+001 4.058162e+001 -1.119975e-001 -2.894191e+001 -1.124149e-001 -2.894964e+001 -3.966907e+001 4.210157e+001
131076890.625 -3.942298e+001 4.040211e+001 -1.117918e-001 -2.925647e+001 -1.134454e-001 -2.925120e+001 -3.956516e+001 4.199322e+001
132483093.75 -3.927123e+001 4.020939e+001 -1.127423e-001 -2.956629e+001 -1.160832e-001 -2.956318e+001 -3.942512e+001 4.187487e+001
133889296.875 -3.920974e+001 4.027213e+001 -1.160307e-001 -2.988238e+001 -1.132612e-001 -2.988733e+001 -3.933304e+001 4.161328e+001
135295500 -3.906430e+001 4.030485e+001 -1.179967e-001 -3.019062e+001 -1.165277e-001 -3.017386e+001 -3.923053e+001 4.159685e+001
136701703.125 -3.893771e+001 4.035341e+001 -1.187798e-001 -3.049865e+001 -1.173406e-001 -3.050883e+001 -3.912097e+001 4.160896e+001
138107906.25 -3.883597e+001 3.992264e+001 -1.183743e-001 -3.080177e+001 -1.184553e-001 -3.080625e+001 -3.894297e+001 4.159198e+001
139514109.375 -3.868858e+001 4.006138e+001 -1.199310e-001 -3.110449e+001 -1.220989e-001 -3.109801e+001 -3.883693e+001 4.147877e+001
140920312.5 -3.863420e+001 3.990621e+001 -1.196452e-001 -3.142556e+001 -1.200102e-001 -3.140524e+001 -3.869701e+001 4.121661e+001
142326515.625 -3.846154e+001 3.966278e+001 -1.200589e-001 -3.174161e+001 -1.187193e-001 -3.173738e+001 -3.855753e+001 4.109175e+001
143732718.75 -3.834684e+001 3.957483e+001 -1.216435e-001 -3.204706e+001 -1.245131e-001 -3.202481e+001 -3.851540e+001 4.096461e+001
145138921.875 -3.822293e+001 3.966789e+001 -1.205115e-001 -3.236759e+001 -1.208966e-001 -3.237618e+001 -3.838534e+001 4.090985e+001
146545125 -3.812521e+001 3.941014e+001 -1.221968e-001 -3.265983e+001 -1.263411e-001 -3.265199e+001 -3.822422e+001 4.107055e+001
147951328.125 -3.799352e+001 3.913057e+001 -1.219851e-001 -3.298650e+001 -1.265187e-001 -3.297738e+001 -3.810418e+001 4.080200e+001
149357531.25 -3.789551e+001 3.911304e+001 -1.246745e-001 -3.326627e+001 -1.230482e-001 -3.326322e+001 -3.800357e+001 4.065960e+001
150763734.375 -3.776923e+001 3.921903e+001 -1.263044e-001 -3.358335e+001 -1.251494e-001 -3.358479e+001 -3.792453e+001 4.047688e+001
152169937.5 -3.765302e+001 3.914064e+001 -1.275129e-001 -3.388899e+001 -1.260929e-001 -3.389932e+001 -3.779885e+001 4.030550e+001
153576140.625 -3.753692e+001 3.901259e+001 -1.262857e-001 -3.420115e+001 -1.284480e-001 -3.418584e+001 -3.762807e+001 4.049564e+001
154982343.75 -3.740412e+001 3.892764e+001 -1.290609e-001 -3.452003e+001 -1.279055e-001 -3.451876e+001 -3.747230e+001 4.021255e+001
156388546.875 -3.728767e+001 3.864713e+001 -1.294795e-001 -3.482996e+001 -1.295260e-001 -3.482218e+001 -3.740192e+001 4.004459e+001
157794750 -3.719717e+001 3.853691e+001 -1.299403e-001 -3.512870e+001 -1.298081e-001 -3.512119e+001 -3.727234e+001 3.984853e+001
159200953.125 -3.710334e+001 3.863052e+001 -1.331253e-001 -3.542810e+001 -1.317800e-001 -3.542765e+001 -3.715562e+001 3.973995e+001
160607156.25 -3.692945e+001 3.838867e+001 -1.351046e-001 -3.574151e+001 -1.335554e-001 -3.575146e+001 -3.703029e+001 3.963667e+001
162013359.375 -3.681193e+001 3.828511e+001 -1.353351e-001 -3.606507e+001 -1.314046e-001 -3.606166e+001 -3.693344e+001 3.949503e+001
163419562.5 -3.670370e+001 3.821782e+001 -1.349486e-001 -3.635908e+001 -1.339405e-001 -3.637171e+001 -3.678957e+001 3.921046e+001
164825765.625 -3.660310e+001 3.811151e+001 -1.325451e-001 -3.669633e+001 -1.351069e-001 -3.667863e+001 -3.670422e+001 3.918737e+001
166231968.75 -3.648911e+001 3.795176e+001 -1.339714e-001 -3.699269e+001 -1.369411e-001 -3.699107e+001 -3.655343e+001 3.902294e+001
167638171.875 -3.638157e+001 3.776709e+001 -1.382316e-001 -3.729801e+001 -1.368436e-001 -3.728411e+001 -3.646167e+001 3.878052e+001
169044375 -3.624390e+001 3.763867e+001 -1.371293e-001 -3.760707e+001 -1.383180e-001 -3.760077e+001 -3.636532e+001 3.875969e+001
170450578.125 -3.613607e+001 3.771147e+001 -1.384942e-001 -3.791453e+001 -1.378191e-001 -3.792402e+001 -3.620739e+001 3.879919e+001
171856781.25 -3.601435e+001 3.729924e+001 -1.403455e-001 -3.822423e+001 -1.382945e-001 -3.822145e+001 -3.610568e+001 3.849905e+001
173262984.375 -3.588122e+001 3.731550e+001 -1.406716e-001 -3.855346e+001 -1.423543e-001 -3.851889e+001 -3.597776e+001 3.840173e+001
174669187.5 -3.576352e+001 3.718592e+001 -1.422416e-001 -3.885213e+001 -1.385725e-001 -3.885360e+001 -3.587727e+001 3.836205e+001
176075390.625 -3.565682e+001 3.724284e+001 -1.396519e-001 -3.913325e+001 -1.432309e-001 -3.914191e+001 -3.573508e+001 3.816179e+001
177481593.75 -3.555785e+001 3.693049e+001 -1.414900e-001 -3.945774e+001 -1.417321e-001 -3.945646e+001 -3.564764e+001 3.787917e+001
178887796.875 -3.543470e+001 3.677810e+001 -1.397146e-001 -3.976712e+001 -1.437746e-001 -3.975657e+001 -3.548562e+001 3.765991e+001
180294000 -3.533792e+001 3.677000e+001 -1.423353e-001 -4.006854e+001 -1.422854e-001 -4.006877e+001 -3.541026e+001 3.771127e+001
181700203.125 -3.518371e+001 3.659086e+001 -1.424719e-001 -4.038089e+001 -1.465895e-001 -4.038123e+001 -3.528662e+001 3.755857e+001
183106406.25 -3.510121e+001 3.646522e+001 -1.490452e-001 -4.069825e+001 -1.444477e-001 -4.070164e+001 -3.518288e+001 3.731421e+001
184512609.375 -3.498676e+001 3.642913e+001 -1.471672e-001 -4.100723e+001 -1.499166e-001 -4.098296e+001 -3.504840e+001 3.715061e+001
185918812.5 -3.487430e+001 3.607840e+001 -1.483306e-001 -4.131639e+001 -1.477726e-001 -4.129969e+001 -3.494950e+001 3.701772e+001
187325015.625 -3.476151e+001 3.583287e+001 -1.473963e-001 -4.162155e+001 -1.468813e-001 -4.161831e+001 -3.483494e+001 3.687053e+001
188731218.75 -3.463253e+001 3.574918e+001 -1.500168e-001 -4.192429e+001 -1.497092e-001 -4.193503e+001 -3.470325e+001 3.646799e+001
190137421.875 -3.451493e+001 3.568848e+001 -1.501525e-001 -4.221732e+001 -1.488129e-001 -4.221496e+001 -3.457608e+001 3.643676e+001
191543625 -3.440042e+001 3.565839e+001 -1.492182e-001 -4.253688e+001 -1.523403e-001 -4.255063e+001 -3.450077e+001 3.621429e+001
192949828.125 -3.432202e+001 3.534146e+001 -1.506537e-001 -4.284782e+001 -1.534187e-001 -4.285724e+001 -3.434361e+001 3.607009e+001
194356031.25 -3.418693e+001 3.511165e+001 -1.498520e-001 -4.316002e+001 -1.529479e-001 -4.315990e+001 -3.423726e+001 3.598317e+001
195762234.375 -3.406675e+001 3.505550e+001 -1.499955e-001 -4.348036e+001 -1.528563e-001 -4.346109e+001 -3.412897e+001 3.576580e+001
197168437.5 -3.398103e+001 3.487503e+001 -1.542062e-001 -4.377025e+001 -1.546636e-001 -4.378793e+001 -3.402777e+001 3.544700e+001
198574640.625 -3.383360e+001 3.458493e+001 -1.528826e-001 -4.409534e+001 -1.548276e-001 -4.410540e+001 -3.390996e+001 3.530983e+001
199980843.75 -3.373675e+001 3.460463e+001 -1.540042e-001 -4.440200e+001 -1.569062e-001 -4.439478e+001 -3.379006e+001 3.519792e+001
201387046.875 -3.362029e+001 3.438515e+001 -1.572500e-001 -4.471036e+001 -1.571051e-001 -4.471391e+001 -3.368243e+001 3.494172e+001
202793250 -3.349003e+001 3.419368e+001 -1.567811e-001 -4.501460e+001 -1.561962e-001 -4.502897e+001 -3.356197e+001 3.473146e+001
204199453.125 -3.340046e+001 3.404235e+001 -1.597058e-001 -4.534557e+001 -1.609542e-001 -4.532246e+001 -3.344706e+001 3.455320e+001
205605656.25 -3.329517e+001 3.381927e+001 -1.598017e-001 -4.563034e+001 -1.591591e-001 -4.563084e+001 -3.336493e+001 3.442975e+001
207011859.375 -3.319106e+001 3.364416e+001 -1.607235e-001 -4.594777e+001 -1.584531e-001 -4.593038e+001 -3.325741e+001 3.428619e+001
208418062.5 -3.307811e+001 3.344688e+001 -1.617302e-001 -4.625464e+001 -1.623825e-001 -4.623624e+001 -3.313197e+001 3.425687e+001
