!Agilent Technologies,E8803A,US42160105,A.06.04.32
!Agilent E8803A: A.06.04.32
!Date: Wednesday, April 19, 2023 22:23:53
!Correction: S11(Full 2 Port(1,2)) S21(Full 2 Port(1,2)) S12(Full 2 Port(1,2)) S22(Full 2 Port(1,2)) 
!S2P File: Measurements: S11, S21, S12, S22:
# Hz S  dB   R 50
300000 -5.526041e+001 1.919907e+001 -1.568240e-002 -1.171700e-001 -1.075836e-002 -8.532365e-002 -5.501598e+001 2.616973e+001
1706203.125 -5.330988e+001 2.653841e+001 -2.049780e-002 -4.160047e-001 -1.551644e-002 -3.920251e-001 -5.330337e+001 2.675787e+001
3112406.25 -5.192311e+001 3.662277e+001 -2.185811e-002 -7.106062e-001 -1.639634e-002 -7.157376e-001 -5.185585e+001 3.739958e+001
4518609.375 -5.053943e+001 4.362249e+001 -2.018260e-002 -1.018513e+000 -1.741388e-002 -1.012436e+000 -5.049599e+001 4.403054e+001
5924812.5 -4.918753e+001 4.953132e+001 -1.900989e-002 -1.312577e+000 -2.473093e-002 -1.324071e+000 -4.924379e+001 4.931680e+001
7331015.625 -4.819741e+001 5.345603e+001 -2.960969e-002 -1.626644e+000 -1.917278e-002 -1.605497e+000 -4.806929e+001 5.415972e+001
8737218.75 -4.716838e+001 5.712430e+001 -2.555261e-002 -1.939232e+000 -2.281420e-002 -1.917829e+000 -4.705576e+001 5.712526e+001
10143421.875 -4.635003e+001 5.857736e+001 -2.661046e-002 -2.202933e+000 -2.690001e-002 -2.205680e+000 -4.624876e+001 5.845805e+001
11549625 -4.540813e+001 6.105834e+001 -3.143679e-002 -2.507813e+000 -2.677906e-002 -2.501614e+000 -4.534544e+001 6.117637e+001
12955828.125 -4.458691e+001 6.280062e+001 -2.966633e-002 -2.801781e+000 -2.877104e-002 -2.821717e+000 -4.457668e+001 6.266452e+001
14362031.25 -4.383481e+001 6.439474e+001 -3.011533e-002 -3.134590e+000 -2.946664e-002 -3.112315e+000 -4.383358e+001 6.403465e+001
15768234.375 -4.315118e+001 6.553955e+001 -3.299773e-002 -3.403373e+000 -3.171439e-002 -3.418482e+000 -4.317960e+001 6.546513e+001
17174437.5 -4.250230e+001 6.627410e+001 -3.223317e-002 -3.727407e+000 -3.221360e-002 -3.722002e+000 -4.246182e+001 6.623391e+001
18580640.625 -4.192006e+001 6.735634e+001 -3.561455e-002 -4.009103e+000 -3.429982e-002 -4.032675e+000 -4.191323e+001 6.698293e+001
19986843.75 -4.136603e+001 6.792384e+001 -3.458279e-002 -4.315315e+000 -3.252889e-002 -4.319036e+000 -4.137584e+001 6.829305e+001
21393046.875 -4.082003e+001 6.836785e+001 -3.671468e-002 -4.613109e+000 -3.622895e-002 -4.609024e+000 -4.082529e+001 6.855280e+001
22799250 -4.036190e+001 6.912212e+001 -3.712776e-002 -4.914224e+000 -3.740216e-002 -4.920234e+000 -4.036063e+001 6.905460e+001
24205453.125 -3.987589e+001 6.946493e+001 -3.651531e-002 -5.207687e+000 -3.815090e-002 -5.215667e+000 -3.985793e+001 6.952467e+001
25611656.25 -3.940734e+001 6.979165e+001 -3.921594e-002 -5.497215e+000 -3.746493e-002 -5.511617e+000 -3.939815e+001 6.965305e+001
27017859.375 -3.900360e+001 6.999805e+001 -4.170522e-002 -5.808496e+000 -3.968279e-002 -5.804705e+000 -3.899961e+001 7.004604e+001
28424062.5 -3.859675e+001 7.008225e+001 -4.251881e-002 -6.110419e+000 -4.389120e-002 -6.103072e+000 -3.861246e+001 7.045848e+001
29830265.625 -3.821999e+001 7.039848e+001 -4.137908e-002 -6.384261e+000 -4.012288e-002 -6.418451e+000 -3.822679e+001 7.040868e+001
31236468.75 -3.783464e+001 7.050832e+001 -4.510484e-002 -6.683550e+000 -4.395427e-002 -6.681337e+000 -3.785250e+001 7.067227e+001
32642671.875 -3.748798e+001 7.070001e+001 -4.476982e-002 -6.993589e+000 -4.438159e-002 -6.986354e+000 -3.750628e+001 7.082055e+001
34048875 -3.715128e+001 7.059317e+001 -4.587520e-002 -7.293867e+000 -4.335969e-002 -7.288263e+000 -3.714477e+001 7.076949e+001
35455078.125 -3.683516e+001 7.073959e+001 -4.916253e-002 -7.599597e+000 -4.553144e-002 -7.593578e+000 -3.680399e+001 7.074727e+001
36861281.25 -3.652584e+001 7.054318e+001 -4.550042e-002 -7.874573e+000 -4.919760e-002 -7.869396e+000 -3.651915e+001 7.103022e+001
38267484.375 -3.620391e+001 7.055165e+001 -4.867359e-002 -8.197054e+000 -5.088433e-002 -8.183396e+000 -3.623322e+001 7.079961e+001
39673687.5 -3.593440e+001 7.038618e+001 -5.175024e-002 -8.492316e+000 -5.022306e-002 -8.471320e+000 -3.592955e+001 7.083959e+001
41079890.625 -3.561448e+001 7.053271e+001 -4.986057e-002 -8.755441e+000 -4.878139e-002 -8.767536e+000 -3.564582e+001 7.086211e+001
42486093.75 -3.538301e+001 7.037978e+001 -5.406686e-002 -9.057199e+000 -5.545285e-002 -9.063458e+000 -3.535810e+001 7.080308e+001
43892296.875 -3.509790e+001 7.024238e+001 -5.532243e-002 -9.363487e+000 -5.068649e-002 -9.359570e+000 -3.511097e+001 7.043553e+001
45298500 -3.484969e+001 7.018975e+001 -5.654856e-002 -9.654256e+000 -5.358779e-002 -9.644790e+000 -3.485691e+001 7.050321e+001
46704703.125 -3.461357e+001 7.014240e+001 -5.602910e-002 -9.958757e+000 -5.498310e-002 -9.942792e+000 -3.460386e+001 7.039353e+001
48110906.25 -3.435381e+001 6.991149e+001 -5.659283e-002 -1.024592e+001 -5.513207e-002 -1.023588e+001 -3.437744e+001 7.038389e+001
49517109.375 -3.412908e+001 6.985472e+001 -5.808625e-002 -1.053481e+001 -5.711033e-002 -1.053028e+001 -3.413353e+001 7.016876e+001
50923312.5 -3.388168e+001 6.962474e+001 -5.835939e-002 -1.083986e+001 -5.640908e-002 -1.083206e+001 -3.389322e+001 7.002476e+001
52329515.625 -3.368459e+001 6.951993e+001 -6.136103e-002 -1.112438e+001 -5.791749e-002 -1.111594e+001 -3.369191e+001 6.990697e+001
53735718.75 -3.347227e+001 6.939439e+001 -6.350194e-002 -1.141132e+001 -5.706397e-002 -1.143721e+001 -3.349057e+001 6.965017e+001
55141921.875 -3.326454e+001 6.909493e+001 -6.652974e-002 -1.171302e+001 -6.181374e-002 -1.170478e+001 -3.329403e+001 6.963203e+001
56548125 -3.305186e+001 6.895329e+001 -6.195801e-002 -1.203087e+001 -6.228806e-002 -1.201026e+001 -3.306262e+001 6.939261e+001
57954328.125 -3.286352e+001 6.878774e+001 -6.383654e-002 -1.232450e+001 -6.339215e-002 -1.230773e+001 -3.286716e+001 6.925564e+001
59360531.25 -3.267780e+001 6.862965e+001 -6.584576e-002 -1.260579e+001 -6.245419e-002 -1.259042e+001 -3.267810e+001 6.920801e+001
60766734.375 -3.248466e+001 6.838235e+001 -6.803501e-002 -1.292140e+001 -6.523138e-002 -1.290530e+001 -3.249537e+001 6.889739e+001
62172937.5 -3.229290e+001 6.827968e+001 -6.719206e-002 -1.319809e+001 -6.700136e-002 -1.317194e+001 -3.229664e+001 6.869512e+001
63579140.625 -3.209992e+001 6.802870e+001 -6.711262e-002 -1.348356e+001 -6.881124e-002 -1.348318e+001 -3.212814e+001 6.860374e+001
64985343.75 -3.193866e+001 6.775423e+001 -7.100491e-002 -1.378089e+001 -6.842239e-002 -1.374333e+001 -3.194209e+001 6.832691e+001
66391546.875 -3.176600e+001 6.760966e+001 -7.173637e-002 -1.408051e+001 -6.866148e-002 -1.406069e+001 -3.178203e+001 6.811098e+001
67797750 -3.160420e+001 6.746654e+001 -7.131340e-002 -1.434166e+001 -6.986744e-002 -1.436310e+001 -3.162330e+001 6.789015e+001
69203953.125 -3.143889e+001 6.723066e+001 -7.142264e-002 -1.466275e+001 -7.202356e-002 -1.464591e+001 -3.145376e+001 6.775306e+001
70610156.25 -3.127533e+001 6.706444e+001 -7.452851e-002 -1.494419e+001 -7.696573e-002 -1.493906e+001 -3.128415e+001 6.758126e+001
72016359.375 -3.111917e+001 6.678164e+001 -7.566890e-002 -1.524824e+001 -7.438211e-002 -1.523629e+001 -3.112965e+001 6.745134e+001
73422562.5 -3.096778e+001 6.654657e+001 -7.584336e-002 -1.555329e+001 -7.668078e-002 -1.552774e+001 -3.098528e+001 6.712416e+001
74828765.625 -3.080636e+001 6.625629e+001 -7.752070e-002 -1.584281e+001 -7.621756e-002 -1.583418e+001 -3.083313e+001 6.688354e+001
76234968.75 -3.066454e+001 6.612510e+001 -7.977724e-002 -1.611557e+001 -7.700342e-002 -1.613409e+001 -3.067313e+001 6.671490e+001
77641171.875 -3.050712e+001 6.585955e+001 -7.880554e-002 -1.640621e+001 -8.086060e-002 -1.640137e+001 -3.053396e+001 6.641697e+001
79047375 -3.036927e+001 6.567672e+001 -7.820512e-002 -1.668382e+001 -7.813422e-002 -1.669254e+001 -3.038219e+001 6.629646e+001
80453578.125 -3.024684e+001 6.548772e+001 -8.255304e-002 -1.699609e+001 -8.137757e-002 -1.700086e+001 -3.024322e+001 6.602412e+001
81859781.25 -3.009914e+001 6.526145e+001 -8.238470e-002 -1.730384e+001 -8.324851e-002 -1.729897e+001 -3.011460e+001 6.585453e+001
83265984.375 -2.996362e+001 6.493748e+001 -8.700880e-002 -1.756441e+001 -8.379713e-002 -1.758456e+001 -2.997170e+001 6.567906e+001
84672187.5 -2.983530e+001 6.466227e+001 -8.563971e-002 -1.787626e+001 -8.550151e-002 -1.785564e+001 -2.984524e+001 6.543950e+001
86078390.625 -2.970496e+001 6.439754e+001 -8.652020e-002 -1.815381e+001 -8.720643e-002 -1.816166e+001 -2.971446e+001 6.517491e+001
87484593.75 -2.956268e+001 6.419260e+001 -8.139479e-002 -1.845482e+001 -8.457911e-002 -1.844608e+001 -2.958006e+001 6.497050e+001
88890796.875 -2.943729e+001 6.404010e+001 -8.966036e-002 -1.873016e+001 -8.737371e-002 -1.875373e+001 -2.945089e+001 6.473852e+001
90297000 -2.932073e+001 6.381860e+001 -8.861196e-002 -1.904069e+001 -8.538596e-002 -1.903220e+001 -2.932492e+001 6.454266e+001
91703203.125 -2.919891e+001 6.356623e+001 -8.947494e-002 -1.933937e+001 -8.970797e-002 -1.933222e+001 -2.920582e+001 6.428677e+001
93109406.25 -2.907032e+001 6.333870e+001 -9.101841e-002 -1.962400e+001 -8.996002e-002 -1.960603e+001 -2.909457e+001 6.415666e+001
94515609.375 -2.895145e+001 6.310669e+001 -8.946791e-002 -1.989472e+001 -9.347112e-002 -1.992051e+001 -2.896111e+001 6.386282e+001
95921812.5 -2.884591e+001 6.283075e+001 -9.309473e-002 -2.020877e+001 -9.174015e-002 -2.020668e+001 -2.885171e+001 6.360153e+001
97328015.625 -2.872894e+001 6.262356e+001 -9.398938e-002 -2.047356e+001 -9.205455e-002 -2.050602e+001 -2.874488e+001 6.329268e+001
98734218.75 -2.861407e+001 6.240438e+001 -9.347539e-002 -2.077740e+001 -9.495626e-002 -2.077471e+001 -2.862557e+001 6.311448e+001
100140421.875 -2.849009e+001 6.215189e+001 -9.549741e-002 -2.108508e+001 -9.465509e-002 -2.108679e+001 -2.851510e+001 6.294057e+001
101546625 -2.839363e+001 6.184706e+001 -9.826789e-002 -2.137536e+001 -9.693252e-002 -2.136483e+001 -2.839867e+001 6.268465e+001
102952828.125 -2.827951e+001 6.171093e+001 -9.821057e-002 -2.165459e+001 -9.749209e-002 -2.164499e+001 -2.830063e+001 6.238327e+001
104359031.25 -2.818300e+001 6.141507e+001 -9.855570e-002 -2.197154e+001 -9.564961e-002 -2.195642e+001 -2.819132e+001 6.216131e+001
105765234.375 -2.807178e+001 6.121424e+001 -1.003527e-001 -2.223266e+001 -1.004037e-001 -2.224444e+001 -2.808492e+001 6.195027e+001
107171437.5 -2.797534e+001 6.093547e+001 -1.031368e-001 -2.255121e+001 -1.036201e-001 -2.252445e+001 -2.798449e+001 6.171613e+001
108577640.625 -2.786696e+001 6.057445e+001 -1.051961e-001 -2.282022e+001 -1.028429e-001 -2.281101e+001 -2.787285e+001 6.143873e+001
109983843.75 -2.777411e+001 6.039596e+001 -1.024478e-001 -2.311574e+001 -1.031932e-001 -2.310826e+001 -2.778300e+001 6.117657e+001
111390046.875 -2.767549e+001 6.013075e+001 -1.067093e-001 -2.342263e+001 -1.047055e-001 -2.342227e+001 -2.767569e+001 6.096688e+001
112796250 -2.757031e+001 5.989171e+001 -1.060632e-001 -2.370582e+001 -1.072791e-001 -2.370931e+001 -2.759148e+001 6.068549e+001
114202453.125 -2.748016e+001 5.970424e+001 -1.058315e-001 -2.400076e+001 -1.058826e-001 -2.398350e+001 -2.749042e+001 6.046588e+001
115608656.25 -2.737091e+001 5.943076e+001 -1.089559e-001 -2.426685e+001 -1.071957e-001 -2.427043e+001 -2.739241e+001 6.024193e+001
117014859.375 -2.728263e+001 5.925379e+001 -1.087779e-001 -2.455996e+001 -1.098719e-001 -2.455217e+001 -2.728785e+001 5.989794e+001
118421062.5 -2.719462e+001 5.894664e+001 -1.119604e-001 -2.486147e+001 -1.104437e-001 -2.485921e+001 -2.720808e+001 5.971358e+001
119827265.625 -2.710514e+001 5.865437e+001 -1.104183e-001 -2.515724e+001 -1.113131e-001 -2.514837e+001 -2.711900e+001 5.947822e+001
121233468.75 -2.701215e+001 5.838218e+001 -1.130576e-001 -2.544804e+001 -1.113674e-001 -2.543640e+001 -2.702633e+001 5.926877e+001
122639671.875 -2.692107e+001 5.816043e+001 -1.138779e-001 -2.575654e+001 -1.134263e-001 -2.571829e+001 -2.693801e+001 5.890267e+001
124045875 -2.682913e+001 5.790075e+001 -1.136838e-001 -2.602687e+001 -1.128359e-001 -2.602708e+001 -2.684335e+001 5.879918e+001
125452078.125 -2.675186e+001 5.766746e+001 -1.151632e-001 -2.630857e+001 -1.146257e-001 -2.631242e+001 -2.676199e+001 5.843730e+001
126858281.25 -2.665795e+001 5.745036e+001 -1.155088e-001 -2.658362e+001 -1.146696e-001 -2.660682e+001 -2.667223e+001 5.820698e+001
128264484.375 -2.657725e+001 5.716934e+001 -1.181431e-001 -2.690461e+001 -1.171542e-001 -2.690565e+001 -2.657879e+001 5.793742e+001
129670687.5 -2.649135e+001 5.693851e+001 -1.162675e-001 -2.719545e+001 -1.172920e-001 -2.719262e+001 -2.649865e+001 5.768856e+001
131076890.625 -2.641316e+001 5.670196e+001 -1.186974e-001 -2.747589e+001 -1.170467e-001 -2.744924e+001 -2.641549e+001 5.749578e+001
132483093.75 -2.632863e+001 5.639738e+001 -1.199931e-001 -2.777179e+001 -1.214954e-001 -2.775790e+001 -2.634607e+001 5.717993e+001
133889296.875 -2.624427e+001 5.619839e+001 -1.192177e-001 -2.806470e+001 -1.193437e-001 -2.806628e+001 -2.625377e+001 5.689862e+001
135295500 -2.616780e+001 5.595462e+001 -1.228550e-001 -2.834103e+001 -1.229238e-001 -2.833362e+001 -2.617883e+001 5.668637e+001
136701703.125 -2.608804e+001 5.569977e+001 -1.244636e-001 -2.864072e+001 -1.203756e-001 -2.863851e+001 -2.610364e+001 5.640309e+001
138107906.25 -2.600712e+001 5.540261e+001 -1.228078e-001 -2.892607e+001 -1.236625e-001 -2.892923e+001 -2.600831e+001 5.620916e+001
139514109.375 -2.593005e+001 5.518636e+001 -1.252695e-001 -2.921017e+001 -1.278097e-001 -2.920050e+001 -2.594433e+001 5.591668e+001
140920312.5 -2.585677e+001 5.491953e+001 -1.263852e-001 -2.951978e+001 -1.261325e-001 -2.949666e+001 -2.585798e+001 5.565642e+001
142326515.625 -2.577194e+001 5.459772e+001 -1.240460e-001 -2.980842e+001 -1.244629e-001 -2.978521e+001 -2.578033e+001 5.542427e+001
143732718.75 -2.570693e+001 5.437467e+001 -1.262241e-001 -3.009284e+001 -1.282774e-001 -3.007496e+001 -2.572010e+001 5.515422e+001
145138921.875 -2.563039e+001 5.412669e+001 -1.288613e-001 -3.039126e+001 -1.303153e-001 -3.038548e+001 -2.564319e+001 5.490906e+001
146545125 -2.556278e+001 5.388430e+001 -1.299468e-001 -3.065239e+001 -1.336262e-001 -3.066135e+001 -2.556291e+001 5.472615e+001
147951328.125 -2.549195e+001 5.362001e+001 -1.293458e-001 -3.095677e+001 -1.323891e-001 -3.095184e+001 -2.548619e+001 5.444756e+001
149357531.25 -2.541274e+001 5.337341e+001 -1.324243e-001 -3.122969e+001 -1.307822e-001 -3.123605e+001 -2.541673e+001 5.418247e+001
150763734.375 -2.534685e+001 5.313826e+001 -1.333397e-001 -3.152907e+001 -1.335240e-001 -3.154266e+001 -2.535925e+001 5.389316e+001
152169937.5 -2.526952e+001 5.285788e+001 -1.330497e-001 -3.182056e+001 -1.342968e-001 -3.182878e+001 -2.528501e+001 5.369316e+001
153576140.625 -2.520427e+001 5.260184e+001 -1.346745e-001 -3.210012e+001 -1.367507e-001 -3.208845e+001 -2.520174e+001 5.344217e+001
154982343.75 -2.512370e+001 5.236215e+001 -1.359087e-001 -3.241278e+001 -1.368051e-001 -3.240519e+001 -2.513422e+001 5.317430e+001
156388546.875 -2.506835e+001 5.206106e+001 -1.373805e-001 -3.268141e+001 -1.390327e-001 -3.269001e+001 -2.507088e+001 5.289620e+001
157794750 -2.499877e+001 5.177083e+001 -1.401422e-001 -3.298757e+001 -1.371136e-001 -3.296397e+001 -2.500524e+001 5.264921e+001
159200953.125 -2.493606e+001 5.158838e+001 -1.417978e-001 -3.326075e+001 -1.400803e-001 -3.324528e+001 -2.494056e+001 5.239958e+001
160607156.25 -2.486294e+001 5.129537e+001 -1.426095e-001 -3.354704e+001 -1.419873e-001 -3.354358e+001 -2.487226e+001 5.216697e+001
162013359.375 -2.480084e+001 5.103753e+001 -1.439828e-001 -3.384658e+001 -1.380192e-001 -3.384944e+001 -2.479880e+001 5.186758e+001
163419562.5 -2.473147e+001 5.075133e+001 -1.434119e-001 -3.412526e+001 -1.432028e-001 -3.412833e+001 -2.474349e+001 5.163741e+001
164825765.625 -2.467108e+001 5.053254e+001 -1.417456e-001 -3.441652e+001 -1.434818e-001 -3.442242e+001 -2.467803e+001 5.142302e+001
166231968.75 -2.460702e+001 5.027797e+001 -1.415124e-001 -3.471664e+001 -1.435526e-001 -3.470799e+001 -2.461501e+001 5.113119e+001
167638171.875 -2.454144e+001 5.003225e+001 -1.468896e-001 -3.499920e+001 -1.449187e-001 -3.497795e+001 -2.455209e+001 5.085499e+001
169044375 -2.448299e+001 4.972587e+001 -1.486550e-001 -3.528391e+001 -1.465233e-001 -3.529195e+001 -2.449985e+001 5.061726e+001
170450578.125 -2.442149e+001 4.950055e+001 -1.491398e-001 -3.556541e+001 -1.487724e-001 -3.558933e+001 -2.442995e+001 5.041418e+001
171856781.25 -2.436231e+001 4.920314e+001 -1.484533e-001 -3.586615e+001 -1.477034e-001 -3.585968e+001 -2.436323e+001 5.010349e+001
173262984.375 -2.429521e+001 4.899486e+001 -1.480450e-001 -3.616666e+001 -1.504135e-001 -3.614980e+001 -2.430611e+001 4.986669e+001
174669187.5 -2.423359e+001 4.869631e+001 -1.518388e-001 -3.644974e+001 -1.508592e-001 -3.643710e+001 -2.424744e+001 4.963446e+001
176075390.625 -2.417479e+001 4.847214e+001 -1.497942e-001 -3.671422e+001 -1.525299e-001 -3.672207e+001 -2.419049e+001 4.931906e+001
177481593.75 -2.411591e+001 4.822583e+001 -1.518399e-001 -3.702721e+001 -1.525509e-001 -3.701283e+001 -2.413040e+001 4.911422e+001
178887796.875 -2.405999e+001 4.795771e+001 -1.519268e-001 -3.730127e+001 -1.540079e-001 -3.729476e+001 -2.406427e+001 4.889814e+001
180294000 -2.400692e+001 4.768065e+001 -1.537922e-001 -3.758322e+001 -1.535246e-001 -3.758391e+001 -2.401487e+001 4.861846e+001
181700203.125 -2.394091e+001 4.743797e+001 -1.534133e-001 -3.788415e+001 -1.551604e-001 -3.787638e+001 -2.394791e+001 4.837785e+001
183106406.25 -2.389017e+001 4.717175e+001 -1.569501e-001 -3.818409e+001 -1.558616e-001 -3.818584e+001 -2.390167e+001 4.808968e+001
184512609.375 -2.383140e+001 4.694619e+001 -1.566807e-001 -3.845319e+001 -1.573895e-001 -3.844858e+001 -2.384348e+001 4.783667e+001
185918812.5 -2.377942e+001 4.665491e+001 -1.565701e-001 -3.875838e+001 -1.558732e-001 -3.873349e+001 -2.378704e+001 4.761111e+001
187325015.625 -2.372675e+001 4.638437e+001 -1.589895e-001 -3.903948e+001 -1.573849e-001 -3.902730e+001 -2.373219e+001 4.736262e+001
188731218.75 -2.365748e+001 4.608414e+001 -1.603224e-001 -3.931376e+001 -1.610336e-001 -3.932088e+001 -2.366764e+001 4.706232e+001
190137421.875 -2.361203e+001 4.584383e+001 -1.630343e-001 -3.961557e+001 -1.586090e-001 -3.959414e+001 -2.361361e+001 4.683706e+001
191543625 -2.355603e+001 4.562381e+001 -1.597715e-001 -3.991206e+001 -1.634243e-001 -3.990379e+001 -2.357141e+001 4.651641e+001
192949828.125 -2.351106e+001 4.533142e+001 -1.623550e-001 -4.019986e+001 -1.640818e-001 -4.018682e+001 -2.350614e+001 4.627757e+001
194356031.25 -2.345555e+001 4.506921e+001 -1.608599e-001 -4.047104e+001 -1.649283e-001 -4.047081e+001 -2.345813e+001 4.607672e+001
195762234.375 -2.339706e+001 4.483052e+001 -1.650862e-001 -4.076976e+001 -1.656432e-001 -4.076849e+001 -2.340606e+001 4.580117e+001
197168437.5 -2.335413e+001 4.458243e+001 -1.657114e-001 -4.102976e+001 -1.680983e-001 -4.104393e+001 -2.335177e+001 4.552220e+001
198574640.625 -2.329363e+001 4.425120e+001 -1.661657e-001 -4.134083e+001 -1.656562e-001 -4.133679e+001 -2.330174e+001 4.529903e+001
199980843.75 -2.324145e+001 4.404905e+001 -1.642104e-001 -4.164182e+001 -1.681714e-001 -4.162352e+001 -2.325840e+001 4.504056e+001
201387046.875 -2.319182e+001 4.378332e+001 -1.696696e-001 -4.191875e+001 -1.680735e-001 -4.192014e+001 -2.320251e+001 4.477336e+001
202793250 -2.313678e+001 4.353181e+001 -1.685826e-001 -4.219719e+001 -1.691358e-001 -4.220290e+001 -2.314604e+001 4.451373e+001
204199453.125 -2.309443e+001 4.325404e+001 -1.716021e-001 -4.249342e+001 -1.721868e-001 -4.249716e+001 -2.309662e+001 4.424017e+001
205605656.25 -2.304546e+001 4.300476e+001 -1.719001e-001 -4.277033e+001 -1.720382e-001 -4.277975e+001 -2.304749e+001 4.398941e+001
207011859.375 -2.299212e+001 4.272116e+001 -1.708690e-001 -4.307055e+001 -1.721651e-001 -4.306662e+001 -2.300662e+001 4.377403e+001
208418062.5 -2.295049e+001 4.245592e+001 -1.746516e-001 -4.336281e+001 -1.737677e-001 -4.334187e+001 -2.295063e+001 4.354889e+001
