!Agilent Technologies,E8803A,US42160105,A.06.04.32
!Agilent E8803A: A.06.04.32
!Date: Wednesday, April 19, 2023 22:24:53
!Correction: S11(Full 2 Port(1,2)) S21(Full 2 Port(1,2)) S12(Full 2 Port(1,2)) S22(Full 2 Port(1,2)) 
!S2P File: Measurements: S11, S21, S12, S22:
# Hz S  dB   R 50
300000 -5.531335e+001 2.133543e+001 -1.736419e-002 -1.353717e-001 -1.121480e-002 -8.637638e-002 -5.508349e+001 2.774290e+001
1706203.125 -5.303660e+001 3.017084e+001 -1.773049e-002 -4.104621e-001 -1.550746e-002 -4.025375e-001 -5.315582e+001 3.063028e+001
3112406.25 -5.137293e+001 4.193618e+001 -1.819690e-002 -7.293912e-001 -1.854707e-002 -7.199494e-001 -5.136964e+001 4.248071e+001
4518609.375 -4.967751e+001 4.912347e+001 -2.164396e-002 -1.019196e+000 -1.879918e-002 -1.019041e+000 -4.962880e+001 4.950316e+001
5924812.5 -4.824469e+001 5.476594e+001 -1.894555e-002 -1.312723e+000 -2.222865e-002 -1.332186e+000 -4.823228e+001 5.468536e+001
7331015.625 -4.701666e+001 5.897024e+001 -2.425563e-002 -1.627423e+000 -2.162458e-002 -1.603687e+000 -4.692702e+001 5.898960e+001
8737218.75 -4.583066e+001 6.186295e+001 -2.695108e-002 -1.949176e+000 -2.345182e-002 -1.919299e+000 -4.580185e+001 6.194533e+001
10143421.875 -4.492533e+001 6.330301e+001 -2.803590e-002 -2.188568e+000 -2.843271e-002 -2.211203e+000 -4.487128e+001 6.264003e+001
11549625 -4.397073e+001 6.518801e+001 -2.869634e-002 -2.500516e+000 -2.748837e-002 -2.511760e+000 -4.395870e+001 6.538779e+001
12955828.125 -4.311023e+001 6.645191e+001 -2.944359e-002 -2.814459e+000 -2.953374e-002 -2.821337e+000 -4.313975e+001 6.646494e+001
14362031.25 -4.235567e+001 6.791471e+001 -3.178989e-002 -3.116096e+000 -3.154558e-002 -3.115874e+000 -4.230582e+001 6.761463e+001
15768234.375 -4.162930e+001 6.908131e+001 -3.257073e-002 -3.405868e+000 -3.220281e-002 -3.412483e+000 -4.159730e+001 6.861868e+001
17174437.5 -4.095798e+001 6.946929e+001 -3.466005e-002 -3.725574e+000 -3.177040e-002 -3.714609e+000 -4.092429e+001 6.950772e+001
18580640.625 -4.035735e+001 7.041313e+001 -3.313323e-002 -4.004941e+000 -3.223774e-002 -4.032185e+000 -4.032508e+001 7.000362e+001
19986843.75 -3.974892e+001 7.087611e+001 -3.694008e-002 -4.328347e+000 -3.266999e-002 -4.311621e+000 -3.974486e+001 7.064210e+001
21393046.875 -3.922715e+001 7.118985e+001 -3.429976e-002 -4.613341e+000 -3.762006e-002 -4.621261e+000 -3.920378e+001 7.114630e+001
22799250 -3.870992e+001 7.177386e+001 -3.821712e-002 -4.910485e+000 -3.559435e-002 -4.920091e+000 -3.869822e+001 7.158865e+001
24205453.125 -3.823666e+001 7.178157e+001 -3.872164e-002 -5.214988e+000 -3.862564e-002 -5.232388e+000 -3.823325e+001 7.164937e+001
25611656.25 -3.777742e+001 7.224724e+001 -3.970165e-002 -5.516427e+000 -3.966009e-002 -5.524969e+000 -3.777334e+001 7.200656e+001
27017859.375 -3.734789e+001 7.225555e+001 -4.224664e-002 -5.816853e+000 -3.954365e-002 -5.819515e+000 -3.732315e+001 7.216739e+001
28424062.5 -3.694600e+001 7.238755e+001 -4.331723e-002 -6.116160e+000 -4.213656e-002 -6.110888e+000 -3.692243e+001 7.250507e+001
29830265.625 -3.654389e+001 7.250899e+001 -4.332495e-002 -6.397025e+000 -4.012139e-002 -6.419398e+000 -3.655102e+001 7.240141e+001
31236468.75 -3.616362e+001 7.247981e+001 -4.640801e-002 -6.687711e+000 -4.424275e-002 -6.693698e+000 -3.617206e+001 7.256770e+001
32642671.875 -3.580640e+001 7.261375e+001 -4.367802e-002 -7.016457e+000 -4.469384e-002 -6.997364e+000 -3.582549e+001 7.261179e+001
34048875 -3.547025e+001 7.247905e+001 -4.653717e-002 -7.287358e+000 -4.520625e-002 -7.295866e+000 -3.546659e+001 7.244682e+001
35455078.125 -3.515061e+001 7.244850e+001 -4.870026e-002 -7.630180e+000 -4.732366e-002 -7.591678e+000 -3.512576e+001 7.234898e+001
36861281.25 -3.483129e+001 7.234950e+001 -5.069549e-002 -7.884546e+000 -4.946248e-002 -7.875491e+000 -3.482828e+001 7.243054e+001
38267484.375 -3.453444e+001 7.231071e+001 -5.081769e-002 -8.213404e+000 -5.240914e-002 -8.192059e+000 -3.454263e+001 7.243369e+001
39673687.5 -3.423265e+001 7.222898e+001 -5.090943e-002 -8.502378e+000 -5.039702e-002 -8.483751e+000 -3.424263e+001 7.234479e+001
41079890.625 -3.392857e+001 7.224793e+001 -5.216949e-002 -8.762975e+000 -4.943099e-002 -8.771545e+000 -3.394106e+001 7.229111e+001
42486093.75 -3.368483e+001 7.200644e+001 -5.442805e-002 -9.086541e+000 -5.578410e-002 -9.057636e+000 -3.365498e+001 7.215899e+001
43892296.875 -3.340516e+001 7.186319e+001 -5.582719e-002 -9.372169e+000 -5.221108e-002 -9.372437e+000 -3.341425e+001 7.196589e+001
45298500 -3.314847e+001 7.178847e+001 -5.683135e-002 -9.654194e+000 -5.526153e-002 -9.650874e+000 -3.313802e+001 7.192995e+001
46704703.125 -3.289532e+001 7.166883e+001 -5.349655e-002 -9.975389e+000 -5.752313e-002 -9.952497e+000 -3.288657e+001 7.168268e+001
48110906.25 -3.264313e+001 7.136479e+001 -5.701707e-002 -1.025932e+001 -5.579686e-002 -1.024387e+001 -3.266219e+001 7.158289e+001
49517109.375 -3.242002e+001 7.131664e+001 -5.768408e-002 -1.054896e+001 -5.900169e-002 -1.054219e+001 -3.242497e+001 7.124879e+001
50923312.5 -3.219413e+001 7.109154e+001 -5.939738e-002 -1.085849e+001 -5.662479e-002 -1.084452e+001 -3.219098e+001 7.120114e+001
52329515.625 -3.197455e+001 7.095864e+001 -6.615623e-002 -1.113243e+001 -6.148520e-002 -1.112617e+001 -3.197843e+001 7.101674e+001
53735718.75 -3.176613e+001 7.078046e+001 -6.467129e-002 -1.143935e+001 -6.067384e-002 -1.142762e+001 -3.177181e+001 7.090878e+001
55141921.875 -3.155375e+001 7.058091e+001 -6.618039e-002 -1.174114e+001 -6.454639e-002 -1.172138e+001 -3.157863e+001 7.074245e+001
56548125 -3.134892e+001 7.033326e+001 -6.397866e-002 -1.204602e+001 -6.458522e-002 -1.201769e+001 -3.134876e+001 7.047103e+001
57954328.125 -3.115756e+001 7.016595e+001 -6.616890e-002 -1.232131e+001 -6.536312e-002 -1.230657e+001 -3.116268e+001 7.035378e+001
59360531.25 -3.095253e+001 6.996718e+001 -6.821891e-002 -1.261483e+001 -6.488212e-002 -1.259967e+001 -3.095935e+001 7.013569e+001
60766734.375 -3.075899e+001 6.971793e+001 -6.796061e-002 -1.292186e+001 -6.867386e-002 -1.290661e+001 -3.077246e+001 6.994536e+001
62172937.5 -3.057490e+001 6.956807e+001 -6.616645e-002 -1.320590e+001 -6.932393e-002 -1.318752e+001 -3.058069e+001 6.971561e+001
63579140.625 -3.039391e+001 6.927843e+001 -7.181710e-002 -1.349175e+001 -7.111921e-002 -1.349057e+001 -3.040542e+001 6.955116e+001
64985343.75 -3.022193e+001 6.907382e+001 -7.324277e-002 -1.379799e+001 -7.128982e-002 -1.377454e+001 -3.023244e+001 6.926798e+001
66391546.875 -3.004981e+001 6.892283e+001 -7.025827e-002 -1.407591e+001 -7.320864e-002 -1.405255e+001 -3.006196e+001 6.910100e+001
67797750 -2.987665e+001 6.864590e+001 -7.184429e-002 -1.436392e+001 -7.508581e-002 -1.436141e+001 -2.991238e+001 6.884747e+001
69203953.125 -2.971537e+001 6.848868e+001 -7.445291e-002 -1.467048e+001 -7.485019e-002 -1.467678e+001 -2.972954e+001 6.863517e+001
70610156.25 -2.954688e+001 6.821591e+001 -7.618747e-002 -1.497391e+001 -7.653706e-002 -1.496253e+001 -2.955843e+001 6.836705e+001
72016359.375 -2.939851e+001 6.799017e+001 -7.853214e-002 -1.525178e+001 -7.992893e-002 -1.523153e+001 -2.940759e+001 6.822303e+001
73422562.5 -2.923354e+001 6.772414e+001 -7.643276e-002 -1.555772e+001 -7.961150e-002 -1.553549e+001 -2.926001e+001 6.791871e+001
74828765.625 -2.908493e+001 6.748006e+001 -7.865540e-002 -1.584556e+001 -7.988810e-002 -1.583809e+001 -2.910043e+001 6.767809e+001
76234968.75 -2.893598e+001 6.727320e+001 -8.034234e-002 -1.614005e+001 -8.119914e-002 -1.613387e+001 -2.895511e+001 6.746545e+001
77641171.875 -2.878733e+001 6.700568e+001 -8.301280e-002 -1.641556e+001 -8.260297e-002 -1.641145e+001 -2.880339e+001 6.719656e+001
79047375 -2.864210e+001 6.678998e+001 -8.389141e-002 -1.671033e+001 -8.234170e-002 -1.670056e+001 -2.866450e+001 6.704565e+001
80453578.125 -2.851514e+001 6.662457e+001 -8.418718e-002 -1.701405e+001 -8.427231e-002 -1.700818e+001 -2.852543e+001 6.679549e+001
81859781.25 -2.836894e+001 6.639432e+001 -8.625278e-002 -1.729212e+001 -8.292710e-002 -1.731874e+001 -2.838651e+001 6.658008e+001
83265984.375 -2.823348e+001 6.609016e+001 -8.810674e-002 -1.759258e+001 -8.661499e-002 -1.759703e+001 -2.825311e+001 6.633841e+001
84672187.5 -2.810664e+001 6.582509e+001 -8.665045e-002 -1.787469e+001 -8.795970e-002 -1.787188e+001 -2.812389e+001 6.615159e+001
86078390.625 -2.796828e+001 6.550549e+001 -8.736658e-002 -1.815576e+001 -9.022292e-002 -1.818737e+001 -2.799168e+001 6.588308e+001
87484593.75 -2.783787e+001 6.530621e+001 -8.673186e-002 -1.848894e+001 -8.812595e-002 -1.846086e+001 -2.785737e+001 6.563562e+001
88890796.875 -2.771762e+001 6.511898e+001 -9.305426e-002 -1.874722e+001 -8.849195e-002 -1.874960e+001 -2.772663e+001 6.540093e+001
90297000 -2.758944e+001 6.485111e+001 -9.055369e-002 -1.906300e+001 -9.184226e-002 -1.904347e+001 -2.760949e+001 6.513860e+001
91703203.125 -2.746183e+001 6.460921e+001 -9.474064e-002 -1.935043e+001 -9.162556e-002 -1.933530e+001 -2.748677e+001 6.485928e+001
93109406.25 -2.734665e+001 6.442464e+001 -9.643304e-002 -1.962189e+001 -9.321339e-002 -1.964344e+001 -2.738031e+001 6.464320e+001
94515609.375 -2.723426e+001 6.419769e+001 -9.659734e-002 -1.992853e+001 -9.546726e-002 -1.993919e+001 -2.724567e+001 6.434435e+001
95921812.5 -2.710558e+001 6.389271e+001 -9.381750e-002 -2.021876e+001 -9.566793e-002 -2.022655e+001 -2.712992e+001 6.417770e+001
97328015.625 -2.699603e+001 6.366513e+001 -9.777930e-002 -2.050936e+001 -9.615567e-002 -2.049889e+001 -2.702327e+001 6.396980e+001
98734218.75 -2.688650e+001 6.340372e+001 -9.762635e-002 -2.080364e+001 -9.938978e-002 -2.079123e+001 -2.691345e+001 6.362885e+001
100140421.875 -2.676346e+001 6.320551e+001 -9.777604e-002 -2.108025e+001 -9.972554e-002 -2.110823e+001 -2.679599e+001 6.345372e+001
101546625 -2.666743e+001 6.289652e+001 -1.020870e-001 -2.138886e+001 -1.006458e-001 -2.137390e+001 -2.668552e+001 6.314847e+001
102952828.125 -2.656485e+001 6.268564e+001 -1.044404e-001 -2.166906e+001 -1.012068e-001 -2.167876e+001 -2.657531e+001 6.285822e+001
104359031.25 -2.645473e+001 6.242584e+001 -1.011213e-001 -2.198442e+001 -1.019190e-001 -2.196055e+001 -2.647350e+001 6.266291e+001
105765234.375 -2.634647e+001 6.219403e+001 -1.034663e-001 -2.227339e+001 -1.058183e-001 -2.226038e+001 -2.636429e+001 6.237598e+001
107171437.5 -2.624754e+001 6.191226e+001 -1.093155e-001 -2.256444e+001 -1.048442e-001 -2.254524e+001 -2.626304e+001 6.212313e+001
108577640.625 -2.614469e+001 6.164981e+001 -1.107276e-001 -2.283875e+001 -1.084138e-001 -2.283824e+001 -2.616141e+001 6.193884e+001
109983843.75 -2.605079e+001 6.143538e+001 -1.093999e-001 -2.313414e+001 -1.061430e-001 -2.312435e+001 -2.606401e+001 6.161511e+001
111390046.875 -2.594272e+001 6.115979e+001 -1.122124e-001 -2.342670e+001 -1.077827e-001 -2.343254e+001 -2.595607e+001 6.141084e+001
112796250 -2.584819e+001 6.093720e+001 -1.114042e-001 -2.370840e+001 -1.109040e-001 -2.371078e+001 -2.586974e+001 6.113091e+001
114202453.125 -2.574957e+001 6.072075e+001 -1.083031e-001 -2.399412e+001 -1.091741e-001 -2.401607e+001 -2.576466e+001 6.087192e+001
115608656.25 -2.565565e+001 6.045370e+001 -1.158800e-001 -2.426245e+001 -1.111087e-001 -2.428837e+001 -2.568000e+001 6.063199e+001
117014859.375 -2.556466e+001 6.022581e+001 -1.169439e-001 -2.459072e+001 -1.142426e-001 -2.457138e+001 -2.558113e+001 6.031532e+001
118421062.5 -2.547267e+001 5.993734e+001 -1.157592e-001 -2.488074e+001 -1.157299e-001 -2.486039e+001 -2.549550e+001 6.005571e+001
119827265.625 -2.537790e+001 5.965258e+001 -1.168094e-001 -2.515160e+001 -1.144806e-001 -2.515394e+001 -2.539746e+001 5.986518e+001
121233468.75 -2.528317e+001 5.940110e+001 -1.162046e-001 -2.545024e+001 -1.175915e-001 -2.544417e+001 -2.531122e+001 5.960891e+001
122639671.875 -2.519692e+001 5.914875e+001 -1.171314e-001 -2.576581e+001 -1.170746e-001 -2.572440e+001 -2.521598e+001 5.929858e+001
124045875 -2.510512e+001 5.889268e+001 -1.182300e-001 -2.605099e+001 -1.186148e-001 -2.603174e+001 -2.512893e+001 5.912091e+001
125452078.125 -2.502165e+001 5.863838e+001 -1.194794e-001 -2.633359e+001 -1.200590e-001 -2.632266e+001 -2.504773e+001 5.879167e+001
126858281.25 -2.493801e+001 5.842877e+001 -1.210545e-001 -2.661228e+001 -1.184278e-001 -2.660946e+001 -2.496033e+001 5.855738e+001
128264484.375 -2.485447e+001 5.811670e+001 -1.236532e-001 -2.691568e+001 -1.211117e-001 -2.691617e+001 -2.486460e+001 5.830877e+001
129670687.5 -2.476528e+001 5.791005e+001 -1.223465e-001 -2.720059e+001 -1.221268e-001 -2.720202e+001 -2.479123e+001 5.802306e+001
131076890.625 -2.468637e+001 5.768850e+001 -1.218199e-001 -2.748818e+001 -1.240295e-001 -2.746449e+001 -2.470702e+001 5.778770e+001
132483093.75 -2.460051e+001 5.739785e+001 -1.244259e-001 -2.777884e+001 -1.254553e-001 -2.776204e+001 -2.462507e+001 5.751377e+001
133889296.875 -2.452125e+001 5.718293e+001 -1.258894e-001 -2.808339e+001 -1.275923e-001 -2.807483e+001 -2.454651e+001 5.725021e+001
135295500 -2.444174e+001 5.692630e+001 -1.259103e-001 -2.835863e+001 -1.265062e-001 -2.836033e+001 -2.446513e+001 5.705110e+001
136701703.125 -2.436612e+001 5.666660e+001 -1.289481e-001 -2.865657e+001 -1.286428e-001 -2.865088e+001 -2.439377e+001 5.672778e+001
138107906.25 -2.428288e+001 5.641880e+001 -1.289843e-001 -2.893425e+001 -1.308836e-001 -2.893574e+001 -2.430514e+001 5.648285e+001
139514109.375 -2.420508e+001 5.618184e+001 -1.303233e-001 -2.922281e+001 -1.315961e-001 -2.921439e+001 -2.423193e+001 5.624607e+001
140920312.5 -2.413515e+001 5.587658e+001 -1.320076e-001 -2.954370e+001 -1.329393e-001 -2.951681e+001 -2.415190e+001 5.588609e+001
142326515.625 -2.405742e+001 5.558318e+001 -1.333149e-001 -2.979406e+001 -1.295818e-001 -2.979811e+001 -2.407063e+001 5.567445e+001
143732718.75 -2.398477e+001 5.534666e+001 -1.352190e-001 -3.010927e+001 -1.347017e-001 -3.008779e+001 -2.401261e+001 5.541539e+001
145138921.875 -2.390227e+001 5.513935e+001 -1.332699e-001 -3.039657e+001 -1.348983e-001 -3.039815e+001 -2.393326e+001 5.516007e+001
146545125 -2.383824e+001 5.483401e+001 -1.342193e-001 -3.067159e+001 -1.361384e-001 -3.068049e+001 -2.385486e+001 5.495115e+001
147951328.125 -2.376410e+001 5.456978e+001 -1.343394e-001 -3.097209e+001 -1.384400e-001 -3.096337e+001 -2.378208e+001 5.467542e+001
149357531.25 -2.369239e+001 5.436265e+001 -1.364987e-001 -3.123344e+001 -1.369922e-001 -3.122479e+001 -2.371066e+001 5.439304e+001
150763734.375 -2.362257e+001 5.412026e+001 -1.368725e-001 -3.152998e+001 -1.383470e-001 -3.155277e+001 -2.365377e+001 5.407981e+001
152169937.5 -2.354965e+001 5.385474e+001 -1.400506e-001 -3.182823e+001 -1.429671e-001 -3.183602e+001 -2.358049e+001 5.389606e+001
153576140.625 -2.348231e+001 5.358139e+001 -1.417774e-001 -3.211103e+001 -1.419511e-001 -3.211322e+001 -2.349968e+001 5.365607e+001
154982343.75 -2.340646e+001 5.335204e+001 -1.419437e-001 -3.242137e+001 -1.445946e-001 -3.239468e+001 -2.342819e+001 5.335545e+001
156388546.875 -2.334498e+001 5.300625e+001 -1.438271e-001 -3.270719e+001 -1.449978e-001 -3.269681e+001 -2.336602e+001 5.307589e+001
157794750 -2.328305e+001 5.278635e+001 -1.448910e-001 -3.298142e+001 -1.431216e-001 -3.296915e+001 -2.329859e+001 5.285106e+001
159200953.125 -2.321676e+001 5.256298e+001 -1.481470e-001 -3.326214e+001 -1.450523e-001 -3.325486e+001 -2.323200e+001 5.255109e+001
160607156.25 -2.314392e+001 5.230502e+001 -1.483184e-001 -3.354948e+001 -1.472631e-001 -3.354766e+001 -2.317343e+001 5.231928e+001
162013359.375 -2.307860e+001 5.202547e+001 -1.520683e-001 -3.384292e+001 -1.468414e-001 -3.386443e+001 -2.310042e+001 5.204843e+001
163419562.5 -2.301219e+001 5.178371e+001 -1.497170e-001 -3.414297e+001 -1.489152e-001 -3.413446e+001 -2.303484e+001 5.174720e+001
164825765.625 -2.294983e+001 5.153062e+001 -1.469563e-001 -3.443430e+001 -1.515975e-001 -3.443376e+001 -2.298190e+001 5.153352e+001
166231968.75 -2.289183e+001 5.128339e+001 -1.526551e-001 -3.470513e+001 -1.523754e-001 -3.471209e+001 -2.291906e+001 5.125686e+001
167638171.875 -2.282547e+001 5.102825e+001 -1.553495e-001 -3.500757e+001 -1.536333e-001 -3.499371e+001 -2.285287e+001 5.098248e+001
169044375 -2.275925e+001 5.070146e+001 -1.531748e-001 -3.530072e+001 -1.542593e-001 -3.528785e+001 -2.279618e+001 5.074014e+001
170450578.125 -2.270692e+001 5.049574e+001 -1.567056e-001 -3.558169e+001 -1.537935e-001 -3.558947e+001 -2.272955e+001 5.050029e+001
171856781.25 -2.264113e+001 5.019306e+001 -1.567391e-001 -3.586773e+001 -1.545319e-001 -3.586768e+001 -2.266434e+001 5.019820e+001
173262984.375 -2.257781e+001 4.998737e+001 -1.567708e-001 -3.616561e+001 -1.582853e-001 -3.613250e+001 -2.260906e+001 4.996055e+001
174669187.5 -2.252145e+001 4.969839e+001 -1.606081e-001 -3.645896e+001 -1.586537e-001 -3.645319e+001 -2.255362e+001 4.970254e+001
176075390.625 -2.246142e+001 4.946582e+001 -1.597928e-001 -3.672451e+001 -1.611107e-001 -3.673018e+001 -2.248857e+001 4.943186e+001
177481593.75 -2.240257e+001 4.919050e+001 -1.596463e-001 -3.702765e+001 -1.603016e-001 -3.702088e+001 -2.243185e+001 4.916428e+001
178887796.875 -2.234962e+001 4.890210e+001 -1.596527e-001 -3.730642e+001 -1.644905e-001 -3.731572e+001 -2.236936e+001 4.892973e+001
180294000 -2.229181e+001 4.864901e+001 -1.622084e-001 -3.759505e+001 -1.629042e-001 -3.759773e+001 -2.231977e+001 4.868277e+001
181700203.125 -2.222999e+001 4.844527e+001 -1.627361e-001 -3.787926e+001 -1.623782e-001 -3.787164e+001 -2.225941e+001 4.843242e+001
183106406.25 -2.217541e+001 4.815712e+001 -1.644150e-001 -3.816902e+001 -1.650633e-001 -3.818294e+001 -2.220516e+001 4.814753e+001
184512609.375 -2.211824e+001 4.793803e+001 -1.671095e-001 -3.845494e+001 -1.668132e-001 -3.843802e+001 -2.214643e+001 4.790107e+001
185918812.5 -2.206400e+001 4.763899e+001 -1.644157e-001 -3.874703e+001 -1.651687e-001 -3.873802e+001 -2.209141e+001 4.764035e+001
187325015.625 -2.201636e+001 4.737445e+001 -1.680006e-001 -3.903100e+001 -1.679095e-001 -3.902871e+001 -2.204165e+001 4.739322e+001
188731218.75 -2.195251e+001 4.708819e+001 -1.680636e-001 -3.932211e+001 -1.678060e-001 -3.931675e+001 -2.198148e+001 4.710676e+001
190137421.875 -2.190376e+001 4.686489e+001 -1.707637e-001 -3.959930e+001 -1.687987e-001 -3.959511e+001 -2.192707e+001 4.684230e+001
191543625 -2.184799e+001 4.663173e+001 -1.700105e-001 -3.988757e+001 -1.723500e-001 -3.990009e+001 -2.187761e+001 4.656457e+001
192949828.125 -2.179967e+001 4.635267e+001 -1.708386e-001 -4.019166e+001 -1.731929e-001 -4.017493e+001 -2.181764e+001 4.630550e+001
194356031.25 -2.174859e+001 4.606254e+001 -1.727915e-001 -4.046413e+001 -1.741627e-001 -4.047081e+001 -2.177004e+001 4.604718e+001
195762234.375 -2.168886e+001 4.583608e+001 -1.737531e-001 -4.076258e+001 -1.727312e-001 -4.076019e+001 -2.172056e+001 4.580309e+001
197168437.5 -2.164703e+001 4.557303e+001 -1.738070e-001 -4.103960e+001 -1.780608e-001 -4.104294e+001 -2.166731e+001 4.549023e+001
198574640.625 -2.158468e+001 4.526667e+001 -1.733240e-001 -4.134230e+001 -1.756416e-001 -4.133772e+001 -2.161778e+001 4.527124e+001
199980843.75 -2.153582e+001 4.505731e+001 -1.745071e-001 -4.162336e+001 -1.775633e-001 -4.161725e+001 -2.156708e+001 4.500898e+001
201387046.875 -2.148553e+001 4.478196e+001 -1.772905e-001 -4.191565e+001 -1.810649e-001 -4.191153e+001 -2.151867e+001 4.475502e+001
202793250 -2.143491e+001 4.452804e+001 -1.793030e-001 -4.218863e+001 -1.772342e-001 -4.218589e+001 -2.146338e+001 4.445686e+001
204199453.125 -2.139362e+001 4.425841e+001 -1.816374e-001 -4.248976e+001 -1.827970e-001 -4.248823e+001 -2.141592e+001 4.417149e+001
205605656.25 -2.134484e+001 4.399980e+001 -1.818944e-001 -4.277032e+001 -1.830389e-001 -4.278374e+001 -2.137135e+001 4.393803e+001
207011859.375 -2.129462e+001 4.372279e+001 -1.808332e-001 -4.306234e+001 -1.830283e-001 -4.304041e+001 -2.132315e+001 4.371127e+001
208418062.5 -2.124917e+001 4.348202e+001 -1.823746e-001 -4.335849e+001 -1.833587e-001 -4.335163e+001 -2.127114e+001 4.347770e+001
